Freq.	V(Vout+,Vout-)*45
4.00000000000000e+003	(-3.52904719850360e+001dB,1.73067513002786e+002°)
4.11611611611612e+003	(-3.47945761931178e+001dB,1.72867281872454e+002°)
4.23223223223223e+003	(-3.43125433002582e+001dB,1.72667136632711e+002°)
4.34834834834835e+003	(-3.38436243883785e+001dB,1.72467079566679e+002°)
4.46446446446447e+003	(-3.33871297431289e+001dB,1.72267112946062e+002°)
4.58058058058058e+003	(-3.29424227714936e+001dB,1.72067239030867e+002°)
4.69669669669670e+003	(-3.25089146809392e+001dB,1.71867460069126e+002°)
4.81281281281281e+003	(-3.20860598084766e+001dB,1.71667778296622e+002°)
4.92892892892893e+003	(-3.16733515066449e+001dB,1.71468195936621e+002°)
5.04504504504505e+003	(-3.12703185085862e+001dB,1.71268715199598e+002°)
5.16116116116116e+003	(-3.08765217067841e+001dB,1.71069338282979e+002°)
5.27727727727728e+003	(-3.04915512902285e+001dB,1.70870067370869e+002°)
5.39339339339339e+003	(-3.01150241931911e+001dB,1.70670904633803e+002°)
5.50950950950951e+003	(-2.97465818157735e+001dB,1.70471852228478e+002°)
5.62562562562563e+003	(-2.93858879822139e+001dB,1.70272912297508e+002°)
5.74174174174174e+003	(-2.90326271077983e+001dB,1.70074086969169e+002°)
5.85785785785786e+003	(-2.86865025493122e+001dB,1.69875378357154e+002°)
5.97397397397398e+003	(-2.83472351174135e+001dB,1.69676788560325e+002°)
6.09009009009009e+003	(-2.80145617322195e+001dB,1.69478319662474e+002°)
6.20620620620621e+003	(-2.76882342058767e+001dB,1.69279973732086e+002°)
6.32232232232232e+003	(-2.73680181379861e+001dB,1.69081752822102e+002°)
6.43843843843844e+003	(-2.70536919115605e+001dB,1.68883658969687e+002°)
6.55455455455456e+003	(-2.67450457787291e+001dB,1.68685694196006e+002°)
6.67067067067067e+003	(-2.64418810267319e+001dB,1.68487860505994e+002°)
6.78678678678679e+003	(-2.61440092158901e+001dB,1.68290159888137e+002°)
6.90290290290291e+003	(-2.58512514822243e+001dB,1.68092594314255e+002°)
7.01901901901902e+003	(-2.55634378982492e+001dB,1.67895165739284e+002°)
7.13513513513514e+003	(-2.52804068862177e+001dB,1.67697876101068e+002°)
7.25125125125125e+003	(-2.50020046787317e+001dB,1.67500727320151e+002°)
7.36736736736737e+003	(-2.47280848222068e+001dB,1.67303721299570e+002°)
7.48348348348349e+003	(-2.44585077191661e+001dB,1.67106859924657e+002°)
7.59959959959960e+003	(-2.41931402057791e+001dB,1.66910145062841e+002°)
7.71571571571572e+003	(-2.39318551614360e+001dB,1.66713578563454e+002°)
7.83183183183184e+003	(-2.36745311474870e+001dB,1.66517162257542e+002°)
7.94794794794795e+003	(-2.34210520725709e+001dB,1.66320897957679e+002°)
8.06406406406407e+003	(-2.31713068822191e+001dB,1.66124787457780e+002°)
8.18018018018018e+003	(-2.29251892706517e+001dB,1.65928832532929e+002°)
8.29629629629630e+003	(-2.26825974128891e+001dB,1.65733034939195e+002°)
8.41241241241242e+003	(-2.24434337154857e+001dB,1.65537396413469e+002°)
8.52852852852853e+003	(-2.22076045843518e+001dB,1.65341918673287e+002°)
8.64464464464465e+003	(-2.19750202082791e+001dB,1.65146603416672e+002°)
8.76076076076077e+003	(-2.17455943569110e+001dB,1.64951452321970e+002°)
8.87687687687688e+003	(-2.15192441920179e+001dB,1.64756467047692e+002°)
8.99299299299300e+003	(-2.12958900910379e+001dB,1.64561649232362e+002°)
9.10910910910911e+003	(-2.10754554819411e+001dB,1.64367000494368e+002°)
9.22522522522523e+003	(-2.08578666885552e+001dB,1.64172522431812e+002°)
9.34134134134135e+003	(-2.06430527855670e+001dB,1.63978216622369e+002°)
9.45745745745746e+003	(-2.04309454624843e+001dB,1.63784084623150e+002°)
9.57357357357358e+003	(-2.02214788959002e+001dB,1.63590127970564e+002°)
9.68968968968970e+003	(-2.00145896294603e+001dB,1.63396348180185e+002°)
9.80580580580581e+003	(-1.98102164609819e+001dB,1.63202746746629e+002°)
9.92192192192193e+003	(-1.96083003362194e+001dB,1.63009325143425e+002°)
1.00380380380380e+004	(-1.94087842488135e+001dB,1.62816084822895e+002°)
1.01541541541542e+004	(-1.92116131459956e+001dB,1.62623027216037e+002°)
1.02702702702703e+004	(-1.90167338396554e+001dB,1.62430153732412e+002°)
1.03863863863864e+004	(-1.88240949224112e+001dB,1.62237465760033e+002°)
1.05025025025025e+004	(-1.86336466883463e+001dB,1.62044964665258e+002°)
1.06186186186186e+004	(-1.84453410581066e+001dB,1.61852651792687e+002°)
1.07347347347347e+004	(-1.82591315080732e+001dB,1.61660528465066e+002°)
1.08508508508509e+004	(-1.80749730033470e+001dB,1.61468595983184e+002°)
1.09669669669670e+004	(-1.78928219343019e+001dB,1.61276855625786e+002°)
1.10830830830831e+004	(-1.77126360564819e+001dB,1.61085308649485e+002°)
1.11991991991992e+004	(-1.75343744336319e+001dB,1.60893956288668e+002°)
1.13153153153153e+004	(-1.73579973836680e+001dB,1.60702799755426e+002°)
1.14314314314314e+004	(-1.71834664274092e+001dB,1.60511840239463e+002°)
1.15475475475476e+004	(-1.70107442399004e+001dB,1.60321078908029e+002°)
1.16636636636637e+004	(-1.68397946041731e+001dB,1.60130516905846e+002°)
1.17797797797798e+004	(-1.66705823672977e+001dB,1.59940155355037e+002°)
1.18958958958959e+004	(-1.65030733985936e+001dB,1.59749995355061e+002°)
1.20120120120120e+004	(-1.63372345498701e+001dB,1.59560037982653e+002°)
1.21281281281281e+004	(-1.61730336175817e+001dB,1.59370284291764e+002°)
1.22442442442443e+004	(-1.60104393067884e+001dB,1.59180735313503e+002°)
1.23603603603604e+004	(-1.58494211968176e+001dB,1.58991392056089e+002°)
1.24764764764765e+004	(-1.56899497085342e+001dB,1.58802255504795e+002°)
1.25925925925926e+004	(-1.55319960731271e+001dB,1.58613326621907e+002°)
1.27087087087087e+004	(-1.53755323023305e+001dB,1.58424606346681e+002°)
1.28248248248248e+004	(-1.52205311600003e+001dB,1.58236095595297e+002°)
1.29409409409410e+004	(-1.50669661349740e+001dB,1.58047795260827e+002°)
1.30570570570571e+004	(-1.49148114151426e+001dB,1.57859706213200e+002°)
1.31731731731732e+004	(-1.47640418626731e+001dB,1.57671829299167e+002°)
1.32892892892893e+004	(-1.46146329903189e+001dB,1.57484165342277e+002°)
1.34054054054054e+004	(-1.44665609387624e+001dB,1.57296715142848e+002°)
1.35215215215215e+004	(-1.43198024549354e+001dB,1.57109479477946e+002°)
1.36376376376376e+004	(-1.41743348712681e+001dB,1.56922459101364e+002°)
1.37537537537538e+004	(-1.40301360858192e+001dB,1.56735654743604e+002°)
1.38698698698699e+004	(-1.38871845432416e+001dB,1.56549067111864e+002°)
1.39859859859860e+004	(-1.37454592165440e+001dB,1.56362696890024e+002°)
1.41021021021021e+004	(-1.36049395896067e+001dB,1.56176544738638e+002°)
1.42182182182182e+004	(-1.34656056404152e+001dB,1.55990611294927e+002°)
1.43343343343343e+004	(-1.33274378249782e+001dB,1.55804897172773e+002°)
1.44504504504505e+004	(-1.31904170618936e+001dB,1.55619402962718e+002°)
1.45665665665666e+004	(-1.30545247175344e+001dB,1.55434129231966e+002°)
1.46826826826827e+004	(-1.29197425918235e+001dB,1.55249076524382e+002°)
1.47987987987988e+004	(-1.27860529045695e+001dB,1.55064245360501e+002°)
1.49149149149149e+004	(-1.26534382823373e+001dB,1.54879636237534e+002°)
1.50310310310310e+004	(-1.25218817458299e+001dB,1.54695249629378e+002°)
1.51471471471472e+004	(-1.23913666977549e+001dB,1.54511085986627e+002°)
1.52632632632633e+004	(-1.22618769111566e+001dB,1.54327145736586e+002°)
1.53793793793794e+004	(-1.21333965181906e+001dB,1.54143429283290e+002°)
1.54954954954955e+004	(-1.20059099993213e+001dB,1.53959937007518e+002°)
1.56116116116116e+004	(-1.18794021729237e+001dB,1.53776669266817e+002°)
1.57277277277277e+004	(-1.17538581852710e+001dB,1.53593626395520e+002°)
1.58438438438439e+004	(-1.16292635008920e+001dB,1.53410808704775e+002°)
1.59599599599600e+004	(-1.15056038932800e+001dB,1.53228216482568e+002°)
1.60760760760761e+004	(-1.13828654359403e+001dB,1.53045849993750e+002°)
1.61921921921922e+004	(-1.12610344937605e+001dB,1.52863709480071e+002°)
1.63083083083083e+004	(-1.11400977146887e+001dB,1.52681795160205e+002°)
1.64244244244244e+004	(-1.10200420217095e+001dB,1.52500107229787e+002°)
1.65405405405406e+004	(-1.09008546051011e+001dB,1.52318645861449e+002°)
1.66566566566567e+004	(-1.07825229149659e+001dB,1.52137411204851e+002°)
1.67727727727728e+004	(-1.06650346540195e+001dB,1.51956403386724e+002°)
1.68888888888889e+004	(-1.05483777706303e+001dB,1.51775622510905e+002°)
1.70050050050050e+004	(-1.04325404520972e+001dB,1.51595068658380e+002°)
1.71211211211211e+004	(-1.03175111181572e+001dB,1.51414741887327e+002°)
1.72372372372372e+004	(-1.02032784147126e+001dB,1.51234642233156e+002°)
1.73533533533534e+004	(-1.00898312077693e+001dB,1.51054769708555e+002°)
1.74694694694695e+004	(-9.97715857757820e+000dB,1.50875124303539e+002°)
1.75855855855856e+004	(-9.86524981297029e+000dB,1.50695705985492e+002°)
1.77017017017017e+004	(-9.75409440587940e+000dB,1.50516514699216e+002°)
1.78178178178178e+004	(-9.64368204604396e+000dB,1.50337550366987e+002°)
1.79339339339339e+004	(-9.53400261588148e+000dB,1.50158812888594e+002°)
1.80500500500500e+004	(-9.42504618552876e+000dB,1.49980302141400e+002°)
1.81661661661662e+004	(-9.31680300804154e+000dB,1.49802017980389e+002°)
1.82822822822823e+004	(-9.20926351474740e+000dB,1.49623960238223e+002°)
1.83983983983984e+004	(-9.10241831074620e+000dB,1.49446128725291e+002°)
1.85145145145145e+004	(-8.99625817055231e+000dB,1.49268523229767e+002°)
1.86306306306306e+004	(-8.89077403387348e+000dB,1.49091143517667e+002°)
1.87467467467467e+004	(-8.78595700152112e+000dB,1.48913989332901e+002°)
1.88628628628628e+004	(-8.68179833144706e+000dB,1.48737060397334e+002°)
1.89789789789790e+004	(-8.57828943490238e+000dB,1.48560356410840e+002°)
1.90950950950951e+004	(-8.47542187271342e+000dB,1.48383877051363e+002°)
1.92112112112112e+004	(-8.37318735167114e+000dB,1.48207621974974e+002°)
1.93273273273273e+004	(-8.27157772102941e+000dB,1.48031590815932e+002°)
1.94434434434434e+004	(-8.17058496910830e+000dB,1.47855783186740e+002°)
1.95595595595595e+004	(-8.07020121999891e+000dB,1.47680198678207e+002°)
1.96756756756756e+004	(-7.97041873036576e+000dB,1.47504836859508e+002°)
1.97917917917918e+004	(-7.87122988634348e+000dB,1.47329697278248e+002°)
1.99079079079079e+004	(-7.77262720052445e+000dB,1.47154779460513e+002°)
2.00240240240240e+004	(-7.67460330903419e+000dB,1.46980082910944e+002°)
2.01401401401401e+004	(-7.57715096869146e+000dB,1.46805607112786e+002°)
2.02562562562562e+004	(-7.48026305425008e+000dB,1.46631351527957e+002°)
2.03723723723723e+004	(-7.38393255571976e+000dB,1.46457315597107e+002°)
2.04884884884884e+004	(-7.28815257576313e+000dB,1.46283498739678e+002°)
2.06046046046046e+004	(-7.19291632716645e+000dB,1.46109900353966e+002°)
2.07207207207207e+004	(-7.09821713038149e+000dB,1.45936519817184e+002°)
2.08368368368368e+004	(-7.00404841113610e+000dB,1.45763356485519e+002°)
2.09529529529529e+004	(-6.91040369811135e+000dB,1.45590409694198e+002°)
2.10690690690690e+004	(-6.81727662068284e+000dB,1.45417678757545e+002°)
2.11851851851851e+004	(-6.72466090672411e+000dB,1.45245162969041e+002°)
2.13013013013012e+004	(-6.63255038047023e+000dB,1.45072861601388e+002°)
2.14174174174174e+004	(-6.54093896043938e+000dB,1.44900773906566e+002°)
2.15335335335335e+004	(-6.44982065741070e+000dB,1.44728899115891e+002°)
2.16496496496496e+004	(-6.35918957245649e+000dB,1.44557236440079e+002°)
2.17657657657657e+004	(-6.26903989502710e+000dB,1.44385785069300e+002°)
2.18818818818818e+004	(-6.17936590108672e+000dB,1.44214544173237e+002°)
2.19979979979979e+004	(-6.09016195129850e+000dB,1.44043512901146e+002°)
2.21141141141140e+004	(-6.00142248925740e+000dB,1.43872690381912e+002°)
2.22302302302302e+004	(-5.91314203976937e+000dB,1.43702075724102e+002°)
2.23463463463463e+004	(-5.82531520717519e+000dB,1.43531668016027e+002°)
2.24624624624624e+004	(-5.73793667371786e+000dB,1.43361466325790e+002°)
2.25785785785785e+004	(-5.65100119795186e+000dB,1.43191469701347e+002°)
2.26946946946946e+004	(-5.56450361319331e+000dB,1.43021677170558e+002°)
2.28108108108107e+004	(-5.47843882600950e+000dB,1.42852087741236e+002°)
2.29269269269268e+004	(-5.39280181474681e+000dB,1.42682700401205e+002°)
2.30430430430430e+004	(-5.30758762809558e+000dB,1.42513514118348e+002°)
2.31591591591591e+004	(-5.22279138369117e+000dB,1.42344527840657e+002°)
2.32752752752752e+004	(-5.13840826674974e+000dB,1.42175740496283e+002°)
2.33913913913913e+004	(-5.05443352873798e+000dB,1.42007150993585e+002°)
2.35075075075074e+004	(-4.97086248607568e+000dB,1.41838758221173e+002°)
2.36236236236235e+004	(-4.88769051887012e+000dB,1.41670561047960e+002°)
2.37397397397396e+004	(-4.80491306968137e+000dB,1.41502558323203e+002°)
2.38558558558558e+004	(-4.72252564231772e+000dB,1.41334748876549e+002°)
2.39719719719719e+004	(-4.64052380066008e+000dB,1.41167131518075e+002°)
2.40880880880880e+004	(-4.55890316751479e+000dB,1.40999705038334e+002°)
2.42042042042041e+004	(-4.47765942349380e+000dB,1.40832468208389e+002°)
2.43203203203202e+004	(-4.39678830592159e+000dB,1.40665419779857e+002°)
2.44364364364363e+004	(-4.31628560776796e+000dB,1.40498558484947e+002°)
2.45525525525524e+004	(-4.23614717660600e+000dB,1.40331883036491e+002°)
2.46686686686686e+004	(-4.15636891359446e+000dB,1.40165392127985e+002°)
2.47847847847847e+004	(-4.07694677248391e+000dB,1.39999084433619e+002°)
2.49009009009008e+004	(-3.99787675864601e+000dB,1.39832958608310e+002°)
2.50170170170169e+004	(-3.91915492812514e+000dB,1.39667013287732e+002°)
2.51331331331330e+004	(-3.84077738671192e+000dB,1.39501247088347e+002°)
2.52492492492491e+004	(-3.76274028903786e+000dB,1.39335658607431e+002°)
2.53653653653652e+004	(-3.68503983769071e+000dB,1.39170246423099e+002°)
2.54814814814814e+004	(-3.60767228234974e+000dB,1.39005009094332e+002°)
2.55975975975975e+004	(-3.53063391894066e+000dB,1.38839945160997e+002°)
2.57137137137136e+004	(-3.45392108880940e+000dB,1.38675053143872e+002°)
2.58298298298297e+004	(-3.37753017791436e+000dB,1.38510331544660e+002°)
2.59459459459458e+004	(-3.30145761603667e+000dB,1.38345778846010e+002°)
2.60620620620619e+004	(-3.22569987600785e+000dB,1.38181393511535e+002°)
2.61781781781780e+004	(-3.15025347295452e+000dB,1.38017173985818e+002°)
2.62942942942942e+004	(-3.07511496355963e+000dB,1.37853118694436e+002°)
2.64104104104103e+004	(-3.00028094533984e+000dB,1.37689226043958e+002°)
2.65265265265264e+004	(-2.92574805593851e+000dB,1.37525494421964e+002°)
2.66426426426425e+004	(-2.85151297243404e+000dB,1.37361922197044e+002°)
2.67587587587586e+004	(-2.77757241066308e+000dB,1.37198507718808e+002°)
2.68748748748747e+004	(-2.70392312455812e+000dB,1.37035249317883e+002°)
2.69909909909908e+004	(-2.63056190549937e+000dB,1.36872145305920e+002°)
2.71071071071070e+004	(-2.55748558168020e+000dB,1.36709193975588e+002°)
2.72232232232231e+004	(-2.48469101748610e+000dB,1.36546393600571e+002°)
2.73393393393392e+004	(-2.41217511288666e+000dB,1.36383742435567e+002°)
2.74554554554553e+004	(-2.33993480284023e+000dB,1.36221238716271e+002°)
2.75715715715714e+004	(-2.26796705671103e+000dB,1.36058880659375e+002°)
2.76876876876875e+004	(-2.19626887769829e+000dB,1.35896666462550e+002°)
2.78038038038037e+004	(-2.12483730227728e+000dB,1.35734594304433e+002°)
2.79199199199198e+004	(-2.05366939965164e+000dB,1.35572662344612e+002°)
2.80360360360359e+004	(-1.98276227121712e+000dB,1.35410868723604e+002°)
2.81521521521520e+004	(-1.91211305003608e+000dB,1.35249211562837e+002°)
2.82682682682681e+004	(-1.84171890032279e+000dB,1.35087688964625e+002°)
2.83843843843842e+004	(-1.77157701693896e+000dB,1.34926299012140e+002°)
2.85005005005003e+004	(-1.70168462489959e+000dB,1.34765039769391e+002°)
2.86166166166165e+004	(-1.63203897888855e+000dB,1.34603909281183e+002°)
2.87327327327326e+004	(-1.56263736278395e+000dB,1.34442905573092e+002°)
2.88488488488487e+004	(-1.49347708919288e+000dB,1.34282026651425e+002°)
2.89649649649648e+004	(-1.42455549899533e+000dB,1.34121270503186e+002°)
2.90810810810809e+004	(-1.35586996089710e+000dB,1.33960635096029e+002°)
2.91971971971970e+004	(-1.28741787099155e+000dB,1.33800118378221e+002°)
2.93133133133131e+004	(-1.21919665232978e+000dB,1.33639718278591e+002°)
2.94294294294293e+004	(-1.15120375449931e+000dB,1.33479432706485e+002°)
2.95455455455454e+004	(-1.08343665321082e+000dB,1.33319259551713e+002°)
2.96616616616615e+004	(-1.01589284989294e+000dB,1.33159196684497e+002°)
2.97777777777776e+004	(-9.48569871294763e-001dB,1.32999241955410e+002°)
2.98938938938937e+004	(-8.81465269096095e-001dB,1.32839393195323e+002°)
3.00100100100098e+004	(-8.14576619524959e-001dB,1.32679648215336e+002°)
3.01261261261259e+004	(-7.47901522982566e-001dB,1.32520004806718e+002°)
3.02422422422421e+004	(-6.81437603675256e-001dB,1.32360460740836e+002°)
3.03583583583582e+004	(-6.15182509253456e-001dB,1.32201013769087e+002°)
3.04744744744743e+004	(-5.49133910457412e-001dB,1.32041661622821e+002°)
3.05905905905904e+004	(-4.83289500769558e-001dB,1.31882402013268e+002°)
3.07067067067065e+004	(-4.17646996073397e-001dB,1.31723232631454e+002°)
3.08228228228226e+004	(-3.52204134318705e-001dB,1.31564151148123e+002°)
3.09389389389387e+004	(-2.86958675193001e-001dB,1.31405155213647e+002°)
3.10550550550549e+004	(-2.21908399799052e-001dB,1.31246242457942e+002°)
3.11711711711710e+004	(-1.57051110338318e-001dB,1.31087410490370e+002°)
3.12872872872871e+004	(-9.23846298002823e-002dB,1.30928656899650e+002°)
3.14034034034032e+004	(-2.79068016574180e-002dB,1.30769979253756e+002°)
3.15195195195193e+004	(3.63845104342413e-002dB,1.30611375099817e+002°)
3.16356356356354e+004	(1.00491422929076e-001dB,1.30452841964011e+002°)
3.17517517517515e+004	(1.64416032680532e-001dB,1.30294377351460e+002°)
3.18678678678677e+004	(2.28160417224465e-001dB,1.30135978746116e+002°)
3.19839839839838e+004	(2.91726635057451e-001dB,1.29977643610645e+002°)
3.21001001000999e+004	(3.55116725910008e-001dB,1.29819369386315e+002°)
3.22162162162160e+004	(4.18332711014930e-001dB,1.29661153492869e+002°)
3.23323323323321e+004	(4.81376593370782e-001dB,1.29502993328400e+002°)
3.24484484484482e+004	(5.44250358000667e-001dB,1.29344886269229e+002°)
3.25645645645643e+004	(6.06955972206390e-001dB,1.29186829669765e+002°)
3.26806806806805e+004	(6.69495385818045e-001dB,1.29028820862375e+002°)
3.27967967967966e+004	(7.31870531439183e-001dB,1.28870857157243e+002°)
3.29129129129127e+004	(7.94083324687578e-001dB,1.28712935842227e+002°)
3.30290290290288e+004	(8.56135664431752e-001dB,1.28555054182715e+002°)
3.31451451451449e+004	(9.18029433023269e-001dB,1.28397209421472e+002°)
3.32612612612610e+004	(9.79766496524934e-001dB,1.28239398778487e+002°)
3.33773773773771e+004	(1.04134870493491e+000dB,1.28081619450817e+002°)
3.34934934934933e+004	(1.10277789240690e+000dB,1.27923868612425e+002°)
3.36096096096094e+004	(1.16405587746645e+000dB,1.27766143414012e+002°)
3.37257257257255e+004	(1.22518446322334e+000dB,1.27608440982852e+002°)
3.38418418418416e+004	(1.28616543758032e+000dB,1.27450758422618e+002°)
3.39579579579577e+004	(1.34700057343810e+000dB,1.27293092813200e+002°)
3.40740740740738e+004	(1.40769162889675e+000dB,1.27135441210530e+002°)
3.41901901901899e+004	(1.46824034745346e+000dB,1.26977800646397e+002°)
3.43063063063061e+004	(1.52864845819688e+000dB,1.26820168128250e+002°)
3.44224224224222e+004	(1.58891767599804e+000dB,1.26662540639013e+002°)
3.45385385385383e+004	(1.64904970169774e+000dB,1.26504915136883e+002°)
3.46546546546544e+004	(1.70904622229080e+000dB,1.26347288555130e+002°)
3.47707707707705e+004	(1.76890891110688e+000dB,1.26189657801888e+002°)
3.48868868868866e+004	(1.82863942798817e+000dB,1.26032019759949e+002°)
3.50030030030027e+004	(1.88823941946388e+000dB,1.25874371286542e+002°)
3.51191191191189e+004	(1.94771051892160e+000dB,1.25716709213120e+002°)
3.52352352352350e+004	(2.00705434677562e+000dB,1.25559030345131e+002°)
3.53513513513511e+004	(2.06627251063218e+000dB,1.25401331461794e+002°)
3.54674674674672e+004	(2.12536660545175e+000dB,1.25243609315861e+002°)
3.55835835835833e+004	(2.18433821370841e+000dB,1.25085860633385e+002°)
3.56996996996994e+004	(2.24318890554628e+000dB,1.24928082113473e+002°)
3.58158158158155e+004	(2.30192023893313e+000dB,1.24770270428043e+002°)
3.59319319319317e+004	(2.36053375981117e+000dB,1.24612422221571e+002°)
3.60480480480478e+004	(2.41903100224503e+000dB,1.24454534110832e+002°)
3.61641641641639e+004	(2.47741348856703e+000dB,1.24296602684642e+002°)
