time	V(n012)	V(n015)	I(L1)
0.000000000000000e+000	-1.221018e-018	0.000000e+000	-2.823224e-040
1.953124944761853e-012	4.380094e-006	9.506769e-004	3.891083e-015
2.001041699187837e-012	4.487631e-006	9.740004e-004	3.988303e-015
2.288542225743740e-012	5.134256e-006	1.113947e-003	4.629758e-015
2.671876261151612e-012	6.000654e-006	1.300557e-003	5.649592e-015
3.438544331967355e-012	7.747096e-006	1.673824e-003	8.332746e-015
4.971880473598840e-012	1.128902e-005	2.420540e-003	1.680320e-014
8.038552756861811e-012	1.853463e-005	3.914493e-003	4.472816e-014
1.125195217719248e-011	2.631231e-005	5.480696e-003	9.533073e-014
1.616133056340799e-011	3.845925e-005	7.875028e-003	2.254476e-013
2.178370225429516e-011	5.266150e-005	1.061932e-002	4.762964e-013
3.015303230660766e-011	7.420485e-005	1.470879e-002	1.102116e-012
4.065053448290306e-011	1.017244e-004	1.984569e-002	2.459988e-012
5.683508115309484e-011	1.449762e-004	2.778227e-002	6.227629e-012
8.032832269494664e-011	2.092920e-004	3.934163e-002	1.721719e-011
1.236984446540356e-010	3.325336e-004	6.081039e-002	6.592180e-011
2.104386885722136e-010	5.964045e-004	1.042435e-001	3.462133e-010
3.839191764085695e-010	1.193304e-003	1.930583e-001	2.202133e-009
7.308801520812813e-010	2.661331e-003	3.782997e-001	1.558542e-008
1.424802103426705e-009	6.686578e-003	7.704505e-001	8.543886e-008
2.114221093598307e-009	1.214713e-002	1.188832e+000	2.485049e-007
3.049128447917078e-009	2.197628e-002	1.800704e+000	6.837866e-007
3.933848457328127e-009	3.403374e-002	2.420467e+000	1.383874e-006
4.739046002149905e-009	4.750181e-002	3.020630e+000	2.373554e-006
5.569767547841938e-009	6.400336e-002	3.673868e+000	3.846238e-006
6.450544217898608e-009	8.442672e-002	4.401567e+000	6.020675e-006
7.489522750148508e-009	1.122822e-001	5.302656e+000	9.531714e-006
8.659572479025033e-009	1.481644e-001	6.358305e+000	1.454907e-005
9.070340753544239e-009	1.617542e-001	6.739660e+000	1.662667e-005
9.178463450961588e-009	1.653605e-001	6.841916e+000	1.723406e-005
9.394708845796288e-009	1.713048e-001	7.047843e+000	1.850013e-005
9.518974913865075e-009	1.721203e-001	7.166328e+000	1.923516e-005
9.648176167153172e-009	1.662556e-001	7.289317e+000	1.997403e-005
9.827533240754440e-009	1.426172e-001	7.459692e+000	2.093450e-005
9.849277279082399e-009	1.386018e-001	7.480359e+000	2.104016e-005
9.892765355738318e-009	1.302161e-001	7.521754e+000	2.123319e-005
9.913023846688163e-009	1.261782e-001	7.541066e+000	2.131799e-005
9.953540828587855e-009	1.179783e-001	7.579764e+000	2.147510e-005
1.000000000000000e-008	1.085117e-001	7.624204e+000	2.164492e-005
1.000464591714121e-008	1.075672e-001	7.626396e+000	2.166037e-005
1.001393775142364e-008	1.056811e-001	7.630779e+000	2.169074e-005
1.003252141998850e-008	1.019303e-001	7.639543e+000	2.174888e-005
1.006968875711822e-008	9.455126e-002	7.657063e+000	2.185478e-005
1.014402343137765e-008	8.051932e-002	7.692085e+000	2.203119e-005
1.026647848359150e-008	6.025310e-002	7.749722e+000	2.224532e-005
1.039794799522472e-008	4.297681e-002	7.811464e+000	2.237862e-005
1.059296685857076e-008	2.532617e-002	7.902692e+000	2.244619e-005
1.074588316825907e-008	1.686052e-002	7.973828e+000	2.242586e-005
1.086807531203362e-008	1.245411e-002	8.030280e+000	2.236903e-005
1.099627004750005e-008	9.352486e-003	8.089067e+000	2.228491e-005
1.114173415146785e-008	7.092264e-003	8.155249e+000	2.217159e-005
1.128247198886425e-008	5.726677e-003	8.218725e+000	2.204954e-005
1.143117972972678e-008	4.809467e-003	8.285168e+000	2.191096e-005
1.158766040507207e-008	4.189157e-003	8.354378e+000	2.175757e-005
1.176650258266431e-008	3.722780e-003	8.432590e+000	2.157502e-005
1.197190711735209e-008	3.360476e-003	8.521257e+000	2.135774e-005
1.221886828699559e-008	3.051454e-003	8.626224e+000	2.108717e-005
1.252736871715384e-008	2.766228e-003	8.754858e+000	2.073637e-005
1.292484708299917e-008	2.488624e-003	8.916554e+000	2.026475e-005
1.346758256701119e-008	2.205308e-003	9.130348e+000	1.958786e-005
1.417262268703688e-008	1.937241e-003	9.396622e+000	1.865522e-005
1.509039722132865e-008	1.687578e-003	9.725306e+000	1.735694e-005
1.615782148843661e-008	1.480035e-003	1.008298e+001	1.572781e-005
1.752542211629174e-008	1.288252e-003	1.050558e+001	1.345877e-005
1.911633208332447e-008	1.127472e-003	1.095048e+001	1.056181e-005
2.121664387569787e-008	9.735620e-004	1.147089e+001	6.330590e-006
2.357715135282071e-008	8.488436e-004	1.197437e+001	1.009069e-006
2.680375139240015e-008	7.256803e-004	1.254851e+001	-7.189983e-006
3.027906120891165e-008	6.318287e-004	1.304317e+001	-1.726418e-005
3.522122696532527e-008	5.383502e-004	1.358077e+001	-3.367916e-005
4.018406880658116e-008	4.755473e-004	1.397706e+001	-5.258767e-005
4.606415453449216e-008	4.245099e-004	1.430083e+001	-7.841195e-005
5.326933559307367e-008	3.847275e-004	1.455719e+001	-1.151700e-004
6.333483039919538e-008	3.515588e-004	1.477008e+001	-1.748087e-004
7.285955574102988e-008	3.347840e-004	1.487792e+001	-2.409047e-004
8.639835892973364e-008	3.210784e-004	1.494868e+001	-3.509756e-004
1.007116602427737e-007	3.142325e-004	1.497957e+001	-4.896424e-004
1.256269862951171e-007	3.079872e-004	1.499573e+001	-7.784654e-004
1.492704802705086e-007	3.070926e-004	1.499949e+001	-1.110976e-003
1.862329675146775e-007	3.090987e-004	1.499997e+001	-1.742685e-003
2.239667635002347e-007	3.178884e-004	1.500000e+001	-2.525456e-003
2.765714351894543e-007	3.365386e-004	1.500000e+001	-3.847501e-003
3.338181381571206e-007	3.685603e-004	1.500000e+001	-5.580372e-003
4.091548906967546e-007	4.229669e-004	1.500000e+001	-8.311959e-003
4.948063998592976e-007	5.047956e-004	1.500000e+001	-1.199726e-002
6.044217470667633e-007	6.315981e-004	1.500000e+001	-1.753242e-002
7.338902428469646e-007	8.133998e-004	1.500000e+001	-2.506930e-002
9.001779808095246e-007	1.080340e-003	1.500000e+001	-3.593053e-002
1.095490480809525e-006	1.428078e-003	1.500000e+001	-4.963095e-002
1.290802980809525e-006	1.783615e-003	1.500000e+001	-6.355710e-002
1.486115480809525e-006	2.125255e-003	1.500000e+001	-7.681107e-002
1.681427980809525e-006	2.424527e-003	1.500000e+001	-8.869690e-002
1.814687500000000e-006	2.596943e-003	1.500000e+001	-9.584726e-002
1.844687499999999e-006	2.630989e-003	1.500000e+001	-9.720591e-002
1.930000000000001e-006	2.717777e-003	1.500000e+001	-1.006590e-001
1.941428571428572e-006	2.727935e-003	1.500000e+001	-1.010767e-001
1.952857142857143e-006	2.737897e-003	1.500000e+001	-1.014829e-001
1.964285714285714e-006	2.747662e-003	1.500000e+001	-1.018776e-001
1.975714285714286e-006	2.757230e-003	1.500000e+001	-1.022608e-001
1.987142857142857e-006	2.766602e-003	1.500000e+001	-1.026324e-001
1.998571428571429e-006	2.775776e-003	1.500000e+001	-1.029926e-001
2.010000000000000e-006	2.784754e-003	1.500000e+001	-1.033413e-001
2.010554646728897e-006	2.725125e-003	1.470381e+001	-1.033579e-001
2.011663940186692e-006	2.594384e-003	1.405643e+001	-1.033909e-001
2.013882527102282e-006	2.350898e-003	1.257255e+001	-1.034566e-001
2.016275344364104e-006	2.118352e-003	1.069485e+001	-1.035270e-001
2.020000000000000e-006	1.755413e-003	7.420772e+000	-1.036359e-001
2.020330792002211e-006	1.762098e-003	7.262796e+000	-1.036455e-001
2.020992376006634e-006	1.791280e-003	6.956793e+000	-1.036647e-001
2.022315544015479e-006	1.862161e-003	6.379205e+000	-1.037029e-001
2.023670869543859e-006	1.929847e-003	5.842177e+000	-1.037418e-001
2.026381520600618e-006	2.081875e-003	4.917074e+000	-1.038191e-001
2.030400970272090e-006	2.403735e-003	3.749292e+000	-1.039327e-001
2.032124978655040e-006	2.664581e-003	3.324356e+000	-1.039811e-001
2.033341985514076e-006	2.990851e-003	3.062811e+000	-1.040150e-001
2.034169107977308e-006	3.380292e-003	2.897840e+000	-1.040379e-001
2.034833990962868e-006	3.925417e-003	2.772266e+000	-1.040563e-001
2.035382091561009e-006	4.720987e-003	2.673051e+000	-1.040714e-001
2.035882148974835e-006	6.026662e-003	2.585871e+000	-1.040852e-001
2.036402257086753e-006	8.483485e-003	2.498429e+000	-1.040994e-001
2.036967804772937e-006	1.298149e-002	2.406986e+000	-1.041147e-001
2.037660759661767e-006	2.086698e-002	2.299676e+000	-1.041333e-001
2.038421437561763e-006	3.110376e-002	2.187429e+000	-1.041534e-001
2.039289726101576e-006	4.367606e-002	2.066619e+000	-1.041758e-001
2.040539005031997e-006	6.323897e-002	1.907178e+000	-1.042067e-001
2.043037562892839e-006	1.072385e-001	1.628718e+000	-1.042643e-001
2.047060118402569e-006	1.904852e-001	1.264467e+000	-1.043444e-001
2.052783257623639e-006	3.316364e-001	8.676128e-001	-1.044337e-001
2.057199661165891e-006	4.559107e-001	6.395607e-001	-1.044804e-001
2.060636375879355e-006	5.601775e-001	5.077641e-001	-1.044984e-001
2.064185549245310e-006	6.737258e-001	4.022887e-001	-1.044992e-001
2.067729383043779e-006	7.922676e-001	3.199960e-001	-1.044815e-001
2.071995195531038e-006	9.408702e-001	2.453456e-001	-1.044329e-001
2.077888596255491e-006	1.155222e+000	1.708649e-001	-1.043209e-001
2.083979346746481e-006	1.386082e+000	1.178517e-001	-1.041510e-001
2.089990321116702e-006	1.621719e+000	8.322866e-002	-1.039245e-001
2.095797282009181e-006	1.855603e+000	6.111823e-002	-1.036469e-001
2.101851489107800e-006	2.105010e+000	4.581666e-002	-1.032942e-001
2.108081247964357e-006	2.366672e+000	3.534342e-002	-1.028632e-001
2.114723082868692e-006	2.650299e+000	2.796033e-002	-1.023263e-001
2.121725997445309e-006	2.953518e+000	2.282222e-002	-1.016723e-001
2.129399166601566e-006	3.289453e+000	1.910431e-002	-1.008506e-001
2.137835241095569e-006	3.661733e+000	1.637536e-002	-9.981889e-002
2.147471871289522e-006	4.088720e+000	1.425072e-002	-9.847482e-002
2.158605956847776e-006	4.581440e+000	1.251583e-002	-9.670132e-002
2.171989823381912e-006	5.168329e+000	1.097425e-002	-9.425771e-002
2.188401619691974e-006	5.872598e+000	9.513247e-003	-9.080385e-002
2.209364351525131e-006	6.734626e+000	8.028066e-003	-8.568861e-002
2.236504426194994e-006	7.766001e+000	6.484156e-003	-7.798803e-002
2.271822639967304e-006	8.931539e+000	4.887303e-003	-6.641001e-002
2.314995446870633e-006	1.005513e+001	3.368256e-003	-5.038717e-002
2.361987115382448e-006	1.090711e+001	2.095323e-003	-3.129148e-002
2.399562405539348e-006	1.133502e+001	1.285234e-003	-1.516583e-002
2.419822821243036e-006	1.147922e+001	9.060498e-004	-6.237398e-003
2.427162696397816e-006	1.151682e+001	7.760651e-004	-2.970724e-003
2.441842446707377e-006	1.156859e+001	5.199775e-004	3.579448e-003
2.450000000000000e-006	1.158370e+001	3.777655e-004	7.218486e-003
2.460000000000000e-006	1.158863e+001	2.029314e-004	1.167565e-002
2.460220000000000e-006	1.158856e+001	1.990489e-004	1.177354e-002
2.460660000000000e-006	1.158841e+001	1.912756e-004	1.196929e-002
2.463299999999999e-006	1.158691e+001	1.444680e-004	1.314299e-002
2.470000000000000e-006	1.157823e+001	2.473947e-005	1.611699e-002
2.470006996013992e-006	1.157822e+001	2.461339e-005	1.612009e-002
2.470020988041976e-006	1.157819e+001	2.436125e-005	1.612629e-002
2.471040407223667e-006	1.157625e+001	5.965519e-006	1.657794e-002
2.472059826405358e-006	1.157415e+001	-1.249588e-005	1.702926e-002
2.473079245587049e-006	1.157188e+001	-3.102295e-005	1.748025e-002
2.474098664768739e-006	1.156944e+001	-4.961569e-005	1.793091e-002
2.475118083950430e-006	1.156684e+001	-6.827410e-005	1.838123e-002
2.476137503132121e-006	1.156407e+001	-8.699817e-005	1.883122e-002
2.477156922313812e-006	1.156114e+001	-1.057879e-004	1.928088e-002
2.485672163344392e-006	1.153001e+001	-2.640283e-004	2.303053e-002
2.493780099561045e-006	1.148915e+001	-4.202215e-004	2.657412e-002
2.500000000000000e-006	1.145020e+001	-5.423552e-004	2.928077e-002
2.500013683808334e-006	1.145010e+001	-5.426571e-004	2.928670e-002
2.500041051425000e-006	1.144991e+001	-5.432850e-004	2.929856e-002
2.500095786658333e-006	1.144951e+001	-5.446478e-004	2.932228e-002
2.500199357145088e-006	1.144872e+001	-5.476223e-004	2.936715e-002
2.500406498118596e-006	1.144699e+001	-5.551047e-004	2.945687e-002
2.500820780065614e-006	1.144295e+001	-5.759667e-004	2.963621e-002
2.501649343959648e-006	1.143255e+001	-6.378185e-004	2.999451e-002
2.502912621123971e-006	1.141048e+001	-7.825816e-004	3.053957e-002
2.504714168482528e-006	1.136380e+001	-1.093636e-003	3.131398e-002
2.506410126227530e-006	1.129888e+001	-1.519394e-003	3.203882e-002
2.508106302573157e-006	1.120967e+001	-2.076308e-003	3.275908e-002
2.508755340516147e-006	1.116898e+001	-2.325143e-003	3.303304e-002
2.509149177990109e-006	1.114350e+001	-2.484738e-003	3.319858e-002
2.509212325052078e-006	1.113960e+001	-2.506158e-003	3.322507e-002
2.509338619176015e-006	1.113387e+001	-2.517967e-003	3.327800e-002
2.509482934874039e-006	1.113656e+001	-2.441231e-003	3.333849e-002
2.509610863611795e-006	1.115745e+001	-2.205485e-003	3.339218e-002
2.509734584576941e-006	1.120675e+001	-1.727207e-003	3.344428e-002
2.509844158085920e-006	1.128298e+001	-9.864205e-004	3.349076e-002
2.510000000000000e-006	1.145506e+001	4.520210e-004	3.355737e-002
2.510005499662598e-006	1.146260e+001	5.195206e-004	3.355974e-002
2.510016498987794e-006	1.147787e+001	6.569114e-004	3.356451e-002
2.510038497638186e-006	1.150958e+001	9.435035e-004	3.357405e-002
2.510082494938971e-006	1.157769e+001	1.563387e-003	3.359327e-002
2.510170489540539e-006	1.173200e+001	2.935395e-003	3.363213e-002
2.510293245694361e-006	1.197743e+001	4.965536e-003	3.368715e-002
2.510386400437684e-006	1.215543e+001	6.409261e-003	3.372958e-002
2.510466490841954e-006	1.227589e+001	7.389986e-003	3.376660e-002
2.510565320672516e-006	1.238097e+001	8.213806e-003	3.381277e-002
2.510682868656138e-006	1.245796e+001	8.829897e-003	3.386805e-002
2.510762512848033e-006	1.248950e+001	9.074175e-003	3.390568e-002
2.510831536264723e-006	1.250808e+001	9.188625e-003	3.393839e-002
2.510916534953613e-006	1.252356e+001	9.262242e-003	3.397872e-002
2.510995360887285e-006	1.253281e+001	9.289308e-003	3.401616e-002
2.511073550632246e-006	1.253889e+001	9.287781e-003	3.405332e-002
2.511151378974291e-006	1.254291e+001	9.268652e-003	3.409033e-002
2.511228615206442e-006	1.254564e+001	9.238378e-003	3.412706e-002
2.511315301255266e-006	1.254773e+001	9.196357e-003	3.416830e-002
2.511399302844660e-006	1.254917e+001	9.150714e-003	3.420826e-002
2.511504443686257e-006	1.255049e+001	9.089811e-003	3.425829e-002
2.511605193087353e-006	1.255148e+001	9.029482e-003	3.430623e-002
2.511748382201203e-006	1.255264e+001	8.942378e-003	3.437437e-002
2.511885530883408e-006	1.255362e+001	8.858755e-003	3.443963e-002
2.512115858390734e-006	1.255513e+001	8.719068e-003	3.454924e-002
2.512335152594606e-006	1.255649e+001	8.587945e-003	3.465361e-002
2.512773741002351e-006	1.255911e+001	8.331056e-003	3.486235e-002
2.513192211688208e-006	1.256150e+001	8.093065e-003	3.506152e-002
2.513854714540219e-006	1.256520e+001	7.730730e-003	3.537685e-002
2.514563182561686e-006	1.256903e+001	7.361410e-003	3.571409e-002
2.515451718204018e-006	1.257377e+001	6.924963e-003	3.613706e-002
2.516457838769275e-006	1.257904e+001	6.464108e-003	3.661604e-002
2.517665506828922e-006	1.258533e+001	5.954656e-003	3.719100e-002
2.519025717865381e-006	1.259233e+001	5.433501e-003	3.783863e-002
2.520663039662011e-006	1.260073e+001	4.872329e-003	3.861825e-002
2.522473791780972e-006	1.260994e+001	4.327701e-003	3.948051e-002
2.524743449307991e-006	1.262148e+001	3.740198e-003	4.056137e-002
2.527124175454425e-006	1.263351e+001	3.223019e-003	4.169520e-002
2.530198821139372e-006	1.264903e+001	2.677059e-003	4.315961e-002
2.533355015567888e-006	1.266490e+001	2.235517e-003	4.466293e-002
2.537899412553913e-006	1.268773e+001	1.753321e-003	4.682755e-002
2.542065184262242e-006	1.270859e+001	1.434373e-003	4.881181e-002
2.548499114788846e-006	1.274080e+001	1.100471e-003	5.187632e-002
2.554338126359744e-006	1.276998e+001	9.021479e-004	5.465714e-002
2.561434554913868e-006	1.280543e+001	7.553067e-004	5.803612e-002
2.568177940326011e-006	1.283908e+001	6.715536e-004	6.124600e-002
2.576619123966642e-006	1.288121e+001	6.125852e-004	6.526221e-002
2.585610268764397e-006	1.292606e+001	5.787229e-004	6.953724e-002
2.597078898839472e-006	1.298327e+001	5.577381e-004	7.498483e-002
2.610652453032305e-006	1.305096e+001	5.464193e-004	8.142240e-002
2.628808762535175e-006	1.314153e+001	5.398162e-004	9.001181e-002
2.653950088701553e-006	1.326691e+001	5.349477e-004	1.018527e-001
2.691095720414077e-006	1.345218e+001	5.295039e-004	1.192031e-001
2.743845888773878e-006	1.371527e+001	5.223441e-004	1.434193e-001
2.831218687739660e-006	1.415109e+001	5.111133e-004	1.820716e-001
2.961671689833317e-006	1.480188e+001	4.956141e-004	2.352227e-001
3.156984189833318e-006	1.577657e+001	4.746834e-004	3.033551e-001
3.352296689833318e-006	1.675172e+001	4.560740e-004	3.548870e-001
3.547609189833318e-006	1.772746e+001	4.395369e-004	3.854635e-001
3.742921689833318e-006	1.870380e+001	4.247276e-004	3.931368e-001
3.938234189833318e-006	1.968081e+001	4.113803e-004	3.775557e-001
4.133546689833318e-006	2.065839e+001	3.992687e-004	3.399764e-001
4.328859189833317e-006	2.163651e+001	3.880143e-004	2.867916e-001
4.358859189833317e-006	2.178679e+001	3.864455e-004	2.765068e-001
4.398859189833317e-006	2.198717e+001	3.843509e-004	2.619319e-001
4.463902444356114e-006	2.231305e+001	3.809768e-004	2.373899e-001
4.500000000000000e-006	2.249393e+001	3.791518e-004	2.230823e-001
4.510000000000000e-006	2.254403e+001	3.786225e-004	2.190513e-001
4.511000000000000e-006	2.254935e+001	3.801177e-004	2.186460e-001
4.513000000000000e-006	2.255995e+001	3.826440e-004	2.178346e-001
4.516000000000000e-006	2.257571e+001	3.852548e-004	2.166156e-001
4.520000000000000e-006	2.259655e+001	3.874619e-004	2.149878e-001
4.520400000000000e-006	2.259850e+001	3.868393e-004	2.148246e-001
4.521200000000000e-006	2.260237e+001	3.855705e-004	2.144982e-001
4.522800000000000e-006	2.261011e+001	3.831631e-004	2.138448e-001
4.525000125608649e-006	2.262073e+001	3.801060e-004	2.129450e-001
4.529400376825946e-006	2.264175e+001	3.735724e-004	2.111420e-001
4.531957074961365e-006	2.265343e+001	3.678762e-004	2.100926e-001
4.533299021694734e-006	2.265896e+001	3.621914e-004	2.095409e-001
4.534161327444108e-006	2.266190e+001	3.552671e-004	2.091860e-001
4.534778757346399e-006	2.266327e+001	3.462441e-004	2.089317e-001
4.535297623969046e-006	2.266339e+001	3.326281e-004	2.087179e-001
4.535767812100163e-006	2.266181e+001	3.103576e-004	2.085240e-001
4.536229922805519e-006	2.265725e+001	2.702249e-004	2.083332e-001
4.536755633200293e-006	2.264578e+001	1.954185e-004	2.081160e-001
4.537259578471324e-006	2.262887e+001	9.899114e-005	2.079073e-001
4.537601608843297e-006	2.261579e+001	2.484296e-005	2.077654e-001
4.537975403216486e-006	2.260109e+001	-5.832365e-005	2.076101e-001
4.538352358054811e-006	2.258596e+001	-1.414709e-004	2.074530e-001
4.539106267731463e-006	2.255493e+001	-3.044823e-004	2.071378e-001
4.540614087084766e-006	2.248989e+001	-6.185846e-004	2.065024e-001
4.543629725791372e-006	2.234819e+001	-1.205573e-003	2.052110e-001
4.549661003204584e-006	2.202042e+001	-2.282064e-003	2.025674e-001
4.554580409101890e-006	2.171184e+001	-3.081483e-003	2.003493e-001
4.558411733369333e-006	2.144910e+001	-3.645691e-003	1.985675e-001
4.562254011186152e-006	2.116886e+001	-4.159604e-003	1.967257e-001
4.567050231041928e-006	2.079949e+001	-4.734926e-003	1.943500e-001
4.572867661112018e-006	2.032825e+001	-5.346057e-003	1.913573e-001
4.579340611714609e-006	1.978124e+001	-5.929602e-003	1.878867e-001
4.585250445299765e-006	1.926662e+001	-6.381604e-003	1.845793e-001
4.591243352998473e-006	1.873450e+001	-6.770166e-003	1.810815e-001
4.597120072518828e-006	1.820632e+001	-7.094245e-003	1.775094e-001
4.603420561092138e-006	1.763661e+001	-7.388442e-003	1.735234e-001
4.609831156466890e-006	1.705674e+001	-7.639125e-003	1.693021e-001
4.616774437028847e-006	1.643214e+001	-7.861514e-003	1.645419e-001
4.624058821967260e-006	1.578461e+001	-8.045433e-003	1.593394e-001
4.632177313037776e-006	1.507681e+001	-8.195498e-003	1.532935e-001
4.641049877126936e-006	1.432521e+001	-8.297250e-003	1.463945e-001
4.651305651260941e-006	1.349161e+001	-8.336890e-003	1.380541e-001
4.663013569871547e-006	1.259435e+001	-8.281178e-003	1.280764e-001
4.677146724671388e-006	1.159960e+001	-8.069537e-003	1.154317e-001
4.694009258016439e-006	1.055341e+001	-7.604026e-003	9.957590e-002
