time	V(n012)	V(n015)	I(L1)
0.000000000000000e+000	-1.221018e-018	0.000000e+000	-1.434212e-039
1.953124944761853e-012	4.380094e-006	9.506769e-004	3.242570e-015
2.001041699187837e-012	4.487631e-006	9.740004e-004	3.323586e-015
2.288542225743740e-012	5.134256e-006	1.113947e-003	3.858132e-015
2.671876261151612e-012	6.000654e-006	1.300557e-003	4.707994e-015
3.438544331967355e-012	7.747096e-006	1.673824e-003	6.943955e-015
4.971880473598840e-012	1.128902e-005	2.420540e-003	1.400267e-014
8.038552756861811e-012	1.853463e-005	3.914493e-003	3.727347e-014
1.125195217719248e-011	2.631231e-005	5.480696e-003	7.944228e-014
1.616133056340799e-011	3.845925e-005	7.875028e-003	1.878730e-013
2.178370225263407e-011	5.266150e-005	1.061932e-002	3.969137e-013
3.015303230769077e-011	7.420485e-005	1.470879e-002	9.184298e-013
4.065053447857719e-011	1.017244e-004	1.984569e-002	2.049990e-012
5.683508114727874e-011	1.449762e-004	2.778227e-002	5.189691e-012
8.032832268240016e-011	2.092920e-004	3.934163e-002	1.434766e-011
1.236984446179042e-010	3.325336e-004	6.081039e-002	5.493485e-011
2.104386884889122e-010	5.964045e-004	1.042435e-001	2.885112e-010
3.839191762309283e-010	1.193304e-003	1.930583e-001	1.835112e-009
7.308801517149604e-010	2.661331e-003	3.782997e-001	1.298787e-008
1.424802102683025e-009	6.686579e-003	7.704505e-001	7.119936e-008
2.114225303857954e-009	1.214717e-002	1.189716e+000	2.115264e-007
3.138315220541693e-009	2.306380e-002	1.863484e+000	6.312273e-007
4.095913022153226e-009	3.654367e-002	2.539972e+000	1.309699e-006
4.946184869519302e-009	5.135958e-002	3.181008e+000	2.257062e-006
5.812529843326021e-009	6.932618e-002	3.871123e+000	3.656153e-006
6.732345826397550e-009	9.158162e-002	4.641498e+000	5.726204e-006
7.814443974671547e-009	1.217824e-001	5.590679e+000	8.988989e-006
8.778043010802479e-009	1.520429e-001	6.467614e+000	1.260843e-005
9.148428995191321e-009	1.643275e-001	6.813564e+000	1.422368e-005
9.259228031222315e-009	1.679280e-001	6.918651e+000	1.475119e-005
9.480826103284302e-009	1.719113e-001	7.129908e+000	1.583947e-005
9.616236857201689e-009	1.681932e-001	7.258877e+000	1.649446e-005
9.763477123130398e-009	1.524875e-001	7.398784e+000	1.716938e-005
9.837931845594314e-009	1.399367e-001	7.469485e+000	1.748520e-005
9.851090555072167e-009	1.374990e-001	7.481995e+000	1.753667e-005
9.877407974027873e-009	1.324836e-001	7.507054e+000	1.763275e-005
9.930042811939284e-009	1.220844e-001	7.557271e+000	1.781063e-005
1.000000000000000e-008	1.079592e-001	7.624143e+000	1.802935e-005
1.000699571880607e-008	1.065458e-001	7.627444e+000	1.804846e-005
1.002098715641822e-008	1.037263e-001	7.634045e+000	1.808568e-005
1.004897003164250e-008	9.814436e-002	7.647241e+000	1.815528e-005
1.010493578209107e-008	8.732237e-002	7.673620e+000	1.827561e-005
1.021686728298822e-008	6.767599e-002	7.726339e+000	1.846398e-005
1.033362709094059e-008	5.060769e-002	7.781248e+000	1.859352e-005
1.049451311122951e-008	3.302027e-002	7.856685e+000	1.867891e-005
1.065615058558173e-008	2.131698e-002	7.932126e+000	1.869147e-005
1.079621468317448e-008	1.481460e-002	7.997097e+000	1.865601e-005
1.092416771399920e-008	1.092084e-002	8.056032e+000	1.859676e-005
1.105795073844478e-008	8.252774e-003	8.117180e+000	1.851712e-005
1.120157854238386e-008	6.431083e-003	8.182289e+000	1.841886e-005
1.134360373378602e-008	5.297053e-003	8.246096e+000	1.831267e-005
1.149660141472757e-008	4.516617e-003	8.314170e+000	1.819107e-005
1.166020262557559e-008	3.976306e-003	8.386194e+000	1.805501e-005
1.185115980637549e-008	3.557086e-003	8.469264e+000	1.789005e-005
1.207013220391065e-008	3.225650e-003	8.563198e+000	1.769414e-005
1.234354390875069e-008	2.926339e-003	8.678522e+000	1.744067e-005
1.268176832838646e-008	2.649233e-003	8.818177e+000	1.711455e-005
1.314101766338456e-008	2.365335e-003	9.002646e+000	1.665121e-005
1.374186161320036e-008	2.090612e-003	9.235382e+000	1.601148e-005
1.455161897295839e-008	1.823593e-003	9.534775e+000	1.509390e-005
1.551315159651867e-008	1.597419e-003	9.869996e+000	1.392406e-005
1.672241741712160e-008	1.392951e-003	1.026219e+001	1.233194e-005
1.814818051140760e-008	1.219375e-003	1.068529e+001	1.028251e-005
1.999055206409135e-008	1.056978e-003	1.117606e+001	7.367517e-006
2.212607381493806e-008	9.210250e-004	1.167406e+001	3.609290e-006
2.492925215768074e-008	7.917451e-004	1.223013e+001	-1.923815e-006
2.811062918842253e-008	6.868613e-004	1.274751e+001	-9.044290e-006
3.237124702413550e-008	5.873186e-004	1.329238e+001	-1.992809e-005
3.700850512349482e-008	5.130406e-004	1.374199e+001	-3.345696e-005
4.206171837607729e-008	4.565928e-004	1.409581e+001	-5.034266e-005
4.818681720919690e-008	4.106266e-004	1.438890e+001	-7.391204e-005
5.639735869970791e-008	3.714839e-004	1.463955e+001	-1.104275e-004
6.549854646895229e-008	3.464163e-004	1.479933e+001	-1.577867e-004
7.807376000704915e-008	3.269700e-004	1.491120e+001	-2.344317e-004
9.070154345733369e-008	3.170801e-004	1.496107e+001	-3.259603e-004
1.115417640137089e-007	3.080039e-004	1.498955e+001	-5.058336e-004
1.317868233036359e-007	3.042113e-004	1.499776e+001	-7.168915e-004
1.644604989728508e-007	3.012767e-004	1.499975e+001	-1.129692e-003
1.976108453615627e-007	3.033887e-004	1.500001e+001	-1.638536e-003
2.442069032943224e-007	3.110101e-004	1.500000e+001	-2.507216e-003
2.945598792289347e-007	3.278652e-004	1.500000e+001	-3.642223e-003
3.610008129160710e-007	3.588801e-004	1.500000e+001	-5.445754e-003
4.359364683215333e-007	4.085077e-004	1.500000e+001	-7.878246e-003
5.314274740761949e-007	4.877651e-004	1.500000e+001	-1.155703e-002
6.425891559381565e-007	6.042623e-004	1.500000e+001	-1.658000e-002
7.827515740467114e-007	7.780984e-004	1.500000e+001	-2.389497e-002
9.520704686340482e-007	1.023881e-003	1.500000e+001	-3.383034e-002
1.147382968634048e-006	1.335674e-003	1.500000e+001	-4.623561e-002
1.342695468634048e-006	1.663061e-003	1.500000e+001	-5.903129e-002
1.538007968634049e-006	1.982240e-003	1.500000e+001	-7.152831e-002
1.733320468634049e-006	2.277859e-003	1.500000e+001	-8.327571e-002
1.814687500000000e-006	2.388475e-003	1.500000e+001	-8.780528e-002
1.847265937268097e-006	2.431596e-003	1.500000e+001	-8.948004e-002
1.922422811804292e-006	2.523402e-003	1.500000e+001	-9.313716e-002
1.934933838689393e-006	2.537632e-003	1.500000e+001	-9.370926e-002
1.947444865574494e-006	2.551694e-003	1.500000e+001	-9.427204e-002
1.959955892459595e-006	2.565588e-003	1.500000e+001	-9.482552e-002
1.972466919344696e-006	2.579313e-003	1.500000e+001	-9.536969e-002
1.984977946229797e-006	2.592869e-003	1.500000e+001	-9.590455e-002
1.997488973114899e-006	2.606257e-003	1.500000e+001	-9.643010e-002
2.010000000000000e-006	2.619477e-003	1.500000e+001	-9.694634e-002
2.010521750341863e-006	2.563889e-003	1.472279e+001	-9.696755e-002
2.011565251025588e-006	2.440865e-003	1.411935e+001	-9.700991e-002
2.013652252393040e-006	2.209667e-003	1.274442e+001	-9.709445e-002
2.015862471361219e-006	1.992381e-003	1.103040e+001	-9.718365e-002
2.020000000000000e-006	1.586412e-003	7.424129e+000	-9.735010e-002
2.020294516138442e-006	1.591204e-003	7.282973e+000	-9.736189e-002
2.020883548415326e-006	1.615499e-003	7.008612e+000	-9.738546e-002
2.022061612969094e-006	1.676725e-003	6.487449e+000	-9.743253e-002
2.023261427367920e-006	1.733610e-003	6.000505e+000	-9.748036e-002
2.025661056165572e-006	1.856944e-003	5.149215e+000	-9.757567e-002
2.029340580154206e-006	2.089490e-003	4.025797e+000	-9.772126e-002
2.031243236081976e-006	2.282146e-003	3.530913e+000	-9.779622e-002
2.032788023329249e-006	2.546978e-003	3.181717e+000	-9.785686e-002
2.033719178326723e-006	2.825619e-003	2.988847e+000	-9.789333e-002
2.034529967925899e-006	3.250057e-003	2.831548e+000	-9.792501e-002
2.035137856864442e-006	3.820747e-003	2.719125e+000	-9.794874e-002
2.035657335090699e-006	4.698007e-003	2.626898e+000	-9.796897e-002
2.036158472575804e-006	6.234473e-003	2.541203e+000	-9.798845e-002
2.036757077104073e-006	9.563499e-003	2.442606e+000	-9.801164e-002
2.037337439522217e-006	1.465457e-002	2.350902e+000	-9.803402e-002
2.038101619702749e-006	2.317880e-002	2.235716e+000	-9.806326e-002
2.038966211868164e-006	3.393558e-002	2.112153e+000	-9.809601e-002
2.039976690561072e-006	4.757955e-002	1.978247e+000	-9.813368e-002
2.041997647946890e-006	7.809269e-002	1.739983e+000	-9.820683e-002
2.045487467157883e-006	1.400612e-001	1.392113e+000	-9.832700e-002
2.049644783055647e-006	2.275200e-001	1.061151e+000	-9.845919e-002
2.054113486035298e-006	3.356044e-001	7.885864e-001	-9.858619e-002
2.058243470112948e-006	4.463429e-001	5.969443e-001	-9.868817e-002
2.061759180480261e-006	5.474935e-001	4.720290e-001	-9.876126e-002
2.065356446833453e-006	6.565576e-001	3.727210e-001	-9.882195e-002
2.068949885744758e-006	7.703850e-001	2.957843e-001	-9.886731e-002
2.073478002599745e-006	9.198207e-001	2.234066e-001	-9.890099e-002
2.079562137490621e-006	1.129626e+000	1.537605e-001	-9.890900e-002
2.085558024760972e-006	1.345023e+000	1.069027e-001	-9.887432e-002
2.091572516500423e-006	1.568422e+000	7.591415e-002	-9.879304e-002
2.097352314788791e-006	1.789099e+000	5.619648e-002	-9.866884e-002
2.103485840759594e-006	2.028872e+000	4.232460e-002	-9.848636e-002
2.109741670044426e-006	2.278585e+000	3.292952e-002	-9.824579e-002
2.116491860004491e-006	2.553042e+000	2.625097e-002	-9.792327e-002
2.123578195393773e-006	2.845864e+000	2.163540e-002	-9.751309e-002
2.131442054470307e-006	3.175354e+000	1.826323e-002	-9.697048e-002
2.140080801594205e-006	3.541443e+000	1.579197e-002	-9.626689e-002
2.150080101911691e-006	3.968672e+000	1.384002e-002	-9.531028e-002
2.161660651146668e-006	4.465335e+000	1.223399e-002	-9.400989e-002
2.175800904064630e-006	5.069959e+000	1.077439e-002	-9.214134e-002
2.193248744151791e-006	5.805543e+000	9.373813e-003	-8.941291e-002
2.215978098515099e-006	6.732009e+000	7.918933e-003	-8.518199e-002
2.245504672207158e-006	7.855718e+000	6.404724e-003	-7.862490e-002
2.284305152469045e-006	9.152630e+000	4.829046e-003	-6.844360e-002
2.330370751242066e-006	1.038765e+001	3.367967e-003	-5.456985e-002
2.371905789346546e-006	1.121728e+001	2.345201e-003	-4.074743e-002
2.403637684835367e-006	1.168583e+001	1.722677e-003	-2.950442e-002
2.423446672364612e-006	1.191337e+001	1.393072e-003	-2.224854e-002
2.433446672364612e-006	1.201065e+001	1.242546e-003	-1.852577e-002
2.440000000000000e-006	1.206824e+001	1.149094e-003	-1.606679e-002
2.446893344729225e-006	1.212367e+001	1.053633e-003	-1.346990e-002
2.450000000000000e-006	1.214695e+001	1.011507e-003	-1.229645e-002
2.453786689458449e-006	1.217389e+001	9.611224e-004	-1.086287e-002
2.460000000000000e-006	1.221475e+001	8.793752e-004	-8.507445e-003
2.460220000000000e-006	1.221611e+001	8.765257e-004	-8.423907e-003
2.460660000000000e-006	1.221884e+001	8.708293e-004	-8.256813e-003
2.463300000000000e-006	1.223475e+001	8.368251e-004	-7.253645e-003
2.466820000000000e-006	1.225480e+001	7.918237e-004	-5.914960e-003
2.470000000000000e-006	1.227178e+001	7.513807e-004	-4.704881e-003
2.470006996013992e-006	1.227181e+001	7.512923e-004	-4.702217e-003
2.470020988041976e-006	1.227188e+001	7.511153e-004	-4.696890e-003
2.471040407223665e-006	1.227709e+001	7.382469e-004	-4.308656e-003
2.472059826405355e-006	1.228219e+001	7.254037e-004	-3.920337e-003
2.473079245587044e-006	1.228718e+001	7.125859e-004	-3.531933e-003
2.474098664768734e-006	1.229205e+001	6.997934e-004	-3.143443e-003
2.475118083950423e-006	1.229681e+001	6.870263e-004	-2.754868e-003
2.476137503132113e-006	1.230147e+001	6.742845e-004	-2.366208e-003
2.477156922313802e-006	1.230601e+001	6.615680e-004	-1.977463e-003
2.484320840641596e-006	1.233474e+001	5.723484e-004	7.549197e-004
2.485672163344412e-006	1.233954e+001	5.555723e-004	1.270518e-003
2.488374808750042e-006	1.234854e+001	5.220853e-004	2.301974e-003
2.493780099561304e-006	1.236413e+001	4.550702e-004	4.364841e-003
2.500000000000000e-006	1.237807e+001	3.778452e-004	6.738342e-003
2.500013683808333e-006	1.237809e+001	3.776457e-004	6.743562e-003
2.500041051424998e-006	1.237814e+001	3.772218e-004	6.754003e-003
2.500095786658329e-006	1.237821e+001	3.762909e-004	6.774884e-003
2.500149082602157e-006	1.237827e+001	3.752545e-004	6.795216e-003
2.500255674489812e-006	1.237835e+001	3.727289e-004	6.835878e-003
2.500468858265121e-006	1.237834e+001	3.660253e-004	6.917198e-003
2.500895225815741e-006	1.237765e+001	3.462331e-004	7.079808e-003
2.501747960916981e-006	1.237364e+001	2.849848e-004	7.404855e-003
2.503038022569110e-006	1.236061e+001	1.398824e-004	7.895949e-003
2.504882929746100e-006	1.232560e+001	-1.787381e-004	8.596160e-003
2.507180435176372e-006	1.225101e+001	-7.167409e-004	9.464719e-003
2.507987908531748e-006	1.221623e+001	-9.479331e-004	9.768670e-003
2.508385053289250e-006	1.219757e+001	-1.075736e-003	9.917540e-003
2.509179342804254e-006	1.215809e+001	-1.323714e-003	1.021452e-002
2.509444774814477e-006	1.214968e+001	-1.382548e-003	1.031361e-002
2.509469135979556e-006	1.214952e+001	-1.382405e-003	1.032269e-002
2.509517858309716e-006	1.215017e+001	-1.364749e-003	1.034086e-002
2.509615302970035e-006	1.215736e+001	-1.271637e-003	1.037721e-002
2.509730386237870e-006	1.218122e+001	-1.034915e-003	1.042021e-002
2.509847308129314e-006	1.223019e+001	-6.460377e-004	1.046400e-002
2.509874961848841e-006	1.224590e+001	-5.204940e-004	1.047438e-002
2.509930269287894e-006	1.228039e+001	-2.274168e-004	1.049521e-002
2.509947493126600e-006	1.229171e+001	-1.325165e-004	1.050171e-002
2.509965552322589e-006	1.230365e+001	-3.127807e-005	1.050853e-002
2.510000000000000e-006	1.232630e+001	1.612535e-004	1.052156e-002
2.510003444767741e-006	1.232855e+001	1.802423e-004	1.052287e-002
2.510010334303224e-006	1.233303e+001	2.180118e-004	1.052548e-002
2.510024113374188e-006	1.234189e+001	2.923968e-004	1.053070e-002
2.510051671516117e-006	1.235918e+001	4.353223e-004	1.054117e-002
2.510106787799975e-006	1.239143e+001	6.926817e-004	1.056215e-002
2.510217020367692e-006	1.244463e+001	1.105792e-003	1.060427e-002
2.510371957868645e-006	1.249463e+001	1.522101e-003	1.066367e-002
2.510472217915521e-006	1.251423e+001	1.696538e-003	1.070221e-002
2.510546799157405e-006	1.252427e+001	1.775531e-003	1.073093e-002
2.510630975406587e-006	1.253232e+001	1.832392e-003	1.076338e-002
2.510722887902405e-006	1.253829e+001	1.870895e-003	1.079883e-002
2.510820049925301e-006	1.254247e+001	1.893648e-003	1.083631e-002
2.510911081561991e-006	1.254509e+001	1.903696e-003	1.087144e-002
2.511007040844301e-006	1.254703e+001	1.906724e-003	1.090849e-002
2.511105761385101e-006	1.254848e+001	1.905068e-003	1.094660e-002
2.511218233823719e-006	1.254975e+001	1.899778e-003	1.099002e-002
2.511341003740161e-006	1.255087e+001	1.891761e-003	1.103742e-002
2.511489089870156e-006	1.255202e+001	1.880495e-003	1.109460e-002
2.511662035651152e-006	1.255324e+001	1.866322e-003	1.116139e-002
2.511888932123768e-006	1.255472e+001	1.847042e-003	1.124901e-002
2.512178088804040e-006	1.255651e+001	1.822120e-003	1.136068e-002
2.512594741480464e-006	1.255897e+001	1.786229e-003	1.152161e-002
2.513134675512662e-006	1.256204e+001	1.740400e-003	1.173018e-002
2.513850977547312e-006	1.256598e+001	1.681339e-003	1.200690e-002
2.514665845741270e-006	1.257036e+001	1.617098e-003	1.232175e-002
2.515720861793987e-006	1.257593e+001	1.538822e-003	1.272945e-002
2.516944577896164e-006	1.258231e+001	1.454969e-003	1.320243e-002
2.518570488532928e-006	1.259070e+001	1.354163e-003	1.383101e-002
2.520410878387583e-006	1.260013e+001	1.253693e-003	1.454269e-002
2.522945790020339e-006	1.261304e+001	1.135450e-003	1.552324e-002
2.525752464255967e-006	1.262726e+001	1.028088e-003	1.660933e-002
2.529796050067336e-006	1.264768e+001	9.070283e-004	1.817476e-002
2.534104721314964e-006	1.266936e+001	8.121733e-004	1.984370e-002
2.540671073836712e-006	1.270232e+001	7.135729e-004	2.238867e-002
2.547297008979492e-006	1.273550e+001	6.510888e-004	2.495853e-002
2.557414116872041e-006	1.278609e+001	5.976069e-004	2.888530e-002
2.566778232753262e-006	1.283286e+001	5.717449e-004	3.252246e-002
2.580275490830919e-006	1.290024e+001	5.549326e-004	3.776858e-002
2.594705544003130e-006	1.297225e+001	5.467692e-004	4.338003e-002
2.617605461689701e-006	1.308652e+001	5.408801e-004	5.228612e-002
2.646330905142686e-006	1.322985e+001	5.360994e-004	6.344321e-002
2.700619521318979e-006	1.350073e+001	5.284324e-004	8.440497e-002
2.795013919016580e-006	1.397173e+001	5.159790e-004	1.200193e-001
2.975674901815573e-006	1.487327e+001	4.942092e-004	1.845524e-001
3.163628163628863e-006	1.581140e+001	4.740036e-004	2.446754e-001
3.358940663628863e-006	1.678657e+001	4.554091e-004	2.960576e-001
3.554253163628863e-006	1.776212e+001	4.388551e-004	3.333706e-001
3.749565663628863e-006	1.873811e+001	4.240386e-004	3.544635e-001
3.944878163628863e-006	1.971457e+001	4.106876e-004	3.582289e-001
4.140190663628863e-006	2.069151e+001	3.985713e-004	3.449925e-001
4.314687500000000e-006	2.156471e+001	3.885260e-004	3.219045e-001
4.324687500000000e-006	2.161476e+001	3.879817e-004	3.201509e-001
4.344687500000000e-006	2.171487e+001	3.869206e-004	3.161375e-001
4.384687500000000e-006	2.191509e+001	3.848045e-004	3.076664e-001
4.440000000000001e-006	2.219199e+001	3.819177e-004	2.952412e-001
4.450000000000001e-006	2.224206e+001	3.814058e-004	2.928447e-001
4.460000000000001e-006	2.229212e+001	3.808958e-004	2.904151e-001
4.470000000000000e-006	2.234219e+001	3.803876e-004	2.879526e-001
4.480000000000000e-006	2.239226e+001	3.798812e-004	2.854570e-001
4.490000000000000e-006	2.244232e+001	3.793767e-004	2.829284e-001
4.500000000000000e-006	2.249239e+001	3.788740e-004	2.803668e-001
4.510000000000000e-006	2.254246e+001	3.783732e-004	2.777722e-001
4.511000000000000e-006	2.254777e+001	3.798455e-004	2.775100e-001
4.513000000000000e-006	2.255835e+001	3.823394e-004	2.769848e-001
4.516000000000000e-006	2.257410e+001	3.848738e-004	2.761948e-001
4.520000000000000e-006	2.259488e+001	3.869170e-004	2.751384e-001
4.520400000000000e-006	2.259682e+001	3.862646e-004	2.750323e-001
4.521200000000000e-006	2.260068e+001	3.849283e-004	2.748200e-001
4.522800000000000e-006	2.260836e+001	3.823642e-004	2.743948e-001
4.525344692469135e-006	2.262056e+001	3.784575e-004	2.737166e-001
4.529022013048961e-006	2.263790e+001	3.721250e-004	2.727334e-001
4.531393653933465e-006	2.264854e+001	3.661042e-004	2.720974e-001
4.532727469964195e-006	2.265396e+001	3.600718e-004	2.717388e-001
4.533682269717113e-006	2.265717e+001	3.523095e-004	2.714816e-001
4.534391393352634e-006	2.265874e+001	3.421025e-004	2.712903e-001
4.534972654886938e-006	2.265889e+001	3.272410e-004	2.711333e-001
4.535471398775201e-006	2.265726e+001	3.043518e-004	2.709985e-001
4.535924011594265e-006	2.265289e+001	2.667196e-004	2.708760e-001
4.536366804037807e-006	2.264359e+001	2.018973e-004	2.707559e-001
4.536811889990346e-006	2.262636e+001	1.009686e-004	2.706349e-001
4.537260453605227e-006	2.260276e+001	-2.854261e-005	2.705126e-001
4.537575213782507e-006	2.258484e+001	-1.274273e-004	2.704265e-001
4.537892552313613e-006	2.256636e+001	-2.282315e-004	2.703394e-001
4.538527229375825e-006	2.252855e+001	-4.270047e-004	2.701641e-001
4.539796583500249e-006	2.244987e+001	-8.123635e-004	2.698097e-001
4.542335291749097e-006	2.228068e+001	-1.540632e-003	2.690838e-001
4.547412708246794e-006	2.189566e+001	-2.890164e-003	2.675746e-001
4.553386915482327e-006	2.136473e+001	-4.356823e-003	2.657098e-001
4.557763930812158e-006	2.092659e+001	-5.347332e-003	2.642641e-001
4.562396947800537e-006	2.042490e+001	-6.311615e-003	2.626432e-001
4.567243505274734e-006	1.986599e+001	-7.231127e-003	2.608451e-001
4.573261684634659e-006	1.913352e+001	-8.257530e-003	2.584656e-001
4.579548336628005e-006	1.833307e+001	-9.216095e-003	2.558101e-001
4.585568209826800e-006	1.754120e+001	-1.003834e-002	2.530922e-001
4.591442418847633e-006	1.675115e+001	-1.076576e-002	2.502652e-001
4.597438362274453e-006	1.593281e+001	-1.144839e-002	2.471985e-001
4.603684202934729e-006	1.507312e+001	-1.211008e-002	2.438091e-001
4.610249088568466e-006	1.416726e+001	-1.276440e-002	2.400320e-001
4.617215163567047e-006	1.320959e+001	-1.342492e-002	2.357833e-001
4.624733423170934e-006	1.218686e+001	-1.411141e-002	2.309215e-001
4.632992532393097e-006	1.108418e+001	-1.484791e-002	2.252543e-001
