Freq.	V(Vout+,Vout-)
Step Information: Rl=4  (Run: 1/7)
1.00000000000000e+005	(-4.52710158805943e+001dB,-9.45935903909534e+001°)
1.00200200200200e+005	(-4.51627008731924e+001dB,-9.46179175722879e+001°)
1.00400400400400e+005	(-4.50541899247756e+001dB,-9.46424385492936e+001°)
1.00600600600601e+005	(-4.49454802079737e+001dB,-9.46671558224394e+001°)
1.00800800800801e+005	(-4.48365688665871e+001dB,-9.46920719356220e+001°)
1.01001001001001e+005	(-4.47274530150214e+001dB,-9.47171894771285e+001°)
1.01201201201201e+005	(-4.46181297377123e+001dB,-9.47425110806236e+001°)
1.01401401401401e+005	(-4.45085960885360e+001dB,-9.47680394261648e+001°)
1.01601601601602e+005	(-4.43988490902087e+001dB,-9.47937772412440e+001°)
1.01801801801802e+005	(-4.42888857336727e+001dB,-9.48197273018587e+001°)
1.02002002002002e+005	(-4.41787029774693e+001dB,-9.48458924336123e+001°)
1.02202202202202e+005	(-4.40682977470978e+001dB,-9.48722755128445e+001°)
1.02402402402402e+005	(-4.39576669343611e+001dB,-9.48988794677936e+001°)
1.02602602602603e+005	(-4.38468073966967e+001dB,-9.49257072797908e+001°)
1.02802802802803e+005	(-4.37357159564927e+001dB,-9.49527619844889e+001°)
1.03003003003003e+005	(-4.36243894003890e+001dB,-9.49800466731242e+001°)
1.03203203203203e+005	(-4.35128244785623e+001dB,-9.50075644938156e+001°)
1.03403403403403e+005	(-4.34010179039962e+001dB,-9.50353186528999e+001°)
1.03603603603604e+005	(-4.32889663517329e+001dB,-9.50633124163057e+001°)
1.03803803803804e+005	(-4.31766664581100e+001dB,-9.50915491109664e+001°)
1.04004004004004e+005	(-4.30641148199783e+001dB,-9.51200321262746e+001°)
1.04204204204204e+005	(-4.29513079939019e+001dB,-9.51487649155785e+001°)
1.04404404404404e+005	(-4.28382424953404e+001dB,-9.51777509977222e+001°)
1.04604604604605e+005	(-4.27249147978112e+001dB,-9.52069939586311e+001°)
1.04804804804805e+005	(-4.26113213320328e+001dB,-9.52364974529442e+001°)
1.05005005005005e+005	(-4.24974584850473e+001dB,-9.52662652056946e+001°)
1.05205205205205e+005	(-4.23833225993228e+001dB,-9.52963010140408e+001°)
1.05405405405405e+005	(-4.22689099718333e+001dB,-9.53266087490494e+001°)
1.05605605605606e+005	(-4.21542168531180e+001dB,-9.53571923575317e+001°)
1.05805805805806e+005	(-4.20392394463161e+001dB,-9.53880558639361e+001°)
1.06006006006006e+005	(-4.19239739061796e+001dB,-9.54192033722980e+001°)
1.06206206206206e+005	(-4.18084163380614e+001dB,-9.54506390682498e+001°)
1.06406406406406e+005	(-4.16925627968782e+001dB,-9.54823672210927e+001°)
1.06606606606607e+005	(-4.15764092860479e+001dB,-9.55143921859327e+001°)
1.06806806806807e+005	(-4.14599517564013e+001dB,-9.55467184058829e+001°)
1.07007007007007e+005	(-4.13431861050651e+001dB,-9.55793504143356e+001°)
1.07207207207207e+005	(-4.12261081743181e+001dB,-9.56122928373051e+001°)
1.07407407407407e+005	(-4.11087137504175e+001dB,-9.56455503958452e+001°)
1.07607607607608e+005	(-4.09909985623956e+001dB,-9.56791279085441e+001°)
1.07807807807808e+005	(-4.08729582808259e+001dB,-9.57130302940985e+001°)
1.08008008008008e+005	(-4.07545885165567e+001dB,-9.57472625739709e+001°)
1.08208208208208e+005	(-4.06358848194123e+001dB,-9.57818298751339e+001°)
1.08408408408408e+005	(-4.05168426768600e+001dB,-9.58167374329026e+001°)
1.08608608608608e+005	(-4.03974575126422e+001dB,-9.58519905938610e+001°)
1.08808808808809e+005	(-4.02777246853726e+001dB,-9.58875948188843e+001°)
1.09009009009009e+005	(-4.01576394870941e+001dB,-9.59235556862619e+001°)
1.09209209209209e+005	(-4.00371971417990e+001dB,-9.59598788949245e+001°)
1.09409409409409e+005	(-3.99163928039094e+001dB,-9.59965702677794e+001°)
1.09609609609609e+005	(-3.97952215567152e+001dB,-9.60336357551588e+001°)
1.09809809809810e+005	(-3.96736784107712e+001dB,-9.60710814383848e+001°)
1.10010010010010e+005	(-3.95517583022487e+001dB,-9.61089135334568e+001°)
1.10210210210210e+005	(-3.94294560912426e+001dB,-9.61471383948657e+001°)
1.10410410410410e+005	(-3.93067665600310e+001dB,-9.61857625195393e+001°)
1.10610610610610e+005	(-3.91836844112861e+001dB,-9.62247925509262e+001°)
1.10810810810811e+005	(-3.90602042662352e+001dB,-9.62642352832224e+001°)
1.11011011011011e+005	(-3.89363206627690e+001dB,-9.63040976657461e+001°)
1.11211211211211e+005	(-3.88120280534967e+001dB,-9.63443868074693e+001°)
1.11411411411411e+005	(-3.86873208037445e+001dB,-9.63851099817096e+001°)
1.11611611611611e+005	(-3.85621931894977e+001dB,-9.64262746309913e+001°)
1.11811811811812e+005	(-3.84366393952811e+001dB,-9.64678883720829e+001°)
1.12012012012012e+005	(-3.83106535119797e+001dB,-9.65099590012162e+001°)
1.12212212212212e+005	(-3.81842295345934e+001dB,-9.65524944994984e+001°)
1.12412412412412e+005	(-3.80573613599263e+001dB,-9.65955030385227e+001°)
1.12612612612612e+005	(-3.79300427842072e+001dB,-9.66389929861868e+001°)
1.12812812812813e+005	(-3.78022675006379e+001dB,-9.66829729127301e+001°)
1.13013013013013e+005	(-3.76740290968687e+001dB,-9.67274515969962e+001°)
1.13213213213213e+005	(-3.75453210523965e+001dB,-9.67724380329338e+001°)
1.13413413413413e+005	(-3.74161367358830e+001dB,-9.68179414363444e+001°)
1.13613613613613e+005	(-3.72864694023917e+001dB,-9.68639712518894e+001°)
1.13813813813814e+005	(-3.71563121905377e+001dB,-9.69105371603677e+001°)
1.14014014014014e+005	(-3.70256581195499e+001dB,-9.69576490862761e+001°)
1.14214214214214e+005	(-3.68945000862403e+001dB,-9.70053172056662e+001°)
1.14414414414414e+005	(-3.67628308618779e+001dB,-9.70535519543107e+001°)
1.14614614614614e+005	(-3.66306430889625e+001dB,-9.71023640361940e+001°)
1.14814814814815e+005	(-3.64979292778960e+001dB,-9.71517644323426e+001°)
1.15015015015015e+005	(-3.63646818035459e+001dB,-9.72017644100107e+001°)
1.15215215215215e+005	(-3.62308929016973e+001dB,-9.72523755322385e+001°)
1.15415415415415e+005	(-3.60965546653886e+001dB,-9.73036096678010e+001°)
1.15615615615615e+005	(-3.59616590411273e+001dB,-9.73554790015663e+001°)
1.15815815815816e+005	(-3.58261978249793e+001dB,-9.74079960452825e+001°)
1.16016016016016e+005	(-3.56901626585292e+001dB,-9.74611736488157e+001°)
1.16216216216216e+005	(-3.55535450247029e+001dB,-9.75150250118601e+001°)
1.16416416416416e+005	(-3.54163362434505e+001dB,-9.75695636961448e+001°)
1.16616616616616e+005	(-3.52785274672808e+001dB,-9.76248036381607e+001°)
1.16816816816817e+005	(-3.51401096766435e+001dB,-9.76807591624360e+001°)
1.17017017017017e+005	(-3.50010736751507e+001dB,-9.77374449953858e+001°)
1.17217217217217e+005	(-3.48614100846330e+001dB,-9.77948762797673e+001°)
1.17417417417417e+005	(-3.47211093400212e+001dB,-9.78530685897707e+001°)
1.17617617617617e+005	(-3.45801616840478e+001dB,-9.79120379467794e+001°)
1.17817817817818e+005	(-3.44385571617598e+001dB,-9.79718008358343e+001°)
1.18018018018018e+005	(-3.42962856148344e+001dB,-9.80323742228402e+001°)
1.18218218218218e+005	(-3.41533366756899e+001dB,-9.80937755725531e+001°)
1.18418418418418e+005	(-3.40096997613819e+001dB,-9.81560228673901e+001°)
1.18618618618618e+005	(-3.38653640672758e+001dB,-9.82191346271082e+001°)
1.18818818818819e+005	(-3.37203185604856e+001dB,-9.82831299293974e+001°)
1.19019019019019e+005	(-3.35745519730689e+001dB,-9.83480284314399e+001°)
1.19219219219219e+005	(-3.34280527949661e+001dB,-9.84138503924873e+001°)
1.19419419419419e+005	(-3.32808092666731e+001dB,-9.84806166975159e+001°)
1.19619619619619e+005	(-3.31328093716350e+001dB,-9.85483488820171e+001°)
1.19819819819820e+005	(-3.29840408283484e+001dB,-9.86170691579900e+001°)
1.20020020020020e+005	(-3.28344910821571e+001dB,-9.86868004412053e+001°)
1.20220220220220e+005	(-3.26841472967297e+001dB,-9.87575663798116e+001°)
1.20420420420420e+005	(-3.25329963452011e+001dB,-9.88293913843656e+001°)
1.20620620620620e+005	(-3.23810248009645e+001dB,-9.89023006593678e+001°)
1.20820820820821e+005	(-3.22282189280949e+001dB,-9.89763202363937e+001°)
1.21021021021021e+005	(-3.20745646713885e+001dB,-9.90514770089162e+001°)
1.21221221221221e+005	(-3.19200476459976e+001dB,-9.91277987689210e+001°)
1.21421421421421e+005	(-3.17646531266424e+001dB,-9.92053142454248e+001°)
1.21621621621621e+005	(-3.16083660363783e+001dB,-9.92840531450128e+001°)
1.21821821821822e+005	(-3.14511709348965e+001dB,-9.93640461945204e+001°)
1.22022022022022e+005	(-3.12930520063348e+001dB,-9.94453251859945e+001°)
1.22222222222222e+005	(-3.11339930465741e+001dB,-9.95279230240769e+001°)
1.22422422422422e+005	(-3.09739774499944e+001dB,-9.96118737759656e+001°)
1.22622622622622e+005	(-3.08129881956614e+001dB,-9.96972127241186e+001°)
1.22822822822822e+005	(-3.06510078329169e+001dB,-9.97839764218789e+001°)
1.23023023023023e+005	(-3.04880184663391e+001dB,-9.98722027522123e+001°)
1.23223223223223e+005	(-3.03240017400417e+001dB,-9.99619309897635e+001°)
1.23423423423423e+005	(-3.01589388212770e+001dB,-1.00053201866452e+002°)
1.23623623623623e+005	(-2.99928103833035e+001dB,-1.00146057640848e+002°)
1.23823823823823e+005	(-2.98255965874822e+001dB,-1.00240542171584e+002°)
1.24024024024024e+005	(-2.96572770645568e+001dB,-1.00336700995079e+002°)
1.24224224224224e+005	(-2.94878308950752e+001dB,-1.00434581407876e+002°)
1.24424424424424e+005	(-2.93172365889037e+001dB,-1.00534232553921e+002°)
1.24624624624624e+005	(-2.91454720637858e+001dB,-1.00635705517124e+002°)
1.24824824824824e+005	(-2.89725146228895e+001dB,-1.00739053419582e+002°)
1.25025025025025e+005	(-2.87983409312889e+001dB,-1.00844331525888e+002°)
1.25225225225225e+005	(-2.86229269913183e+001dB,-1.00951597353945e+002°)
1.25425425425425e+005	(-2.84462481167344e+001dB,-1.01060910792789e+002°)
1.25625625625625e+005	(-2.82682789056192e+001dB,-1.01172334227928e+002°)
1.25825825825825e+005	(-2.80889932119492e+001dB,-1.01285932674772e+002°)
1.26026026026026e+005	(-2.79083641157544e+001dB,-1.01401773920768e+002°)
1.26226226226226e+005	(-2.77263638917828e+001dB,-1.01519928676904e+002°)
1.26426426426426e+005	(-2.75429639765833e+001dB,-1.01640470739327e+002°)
1.26626626626626e+005	(-2.73581349339118e+001dB,-1.01763477161849e+002°)
1.26826826826826e+005	(-2.71718464183595e+001dB,-1.01889028440231e+002°)
1.27027027027027e+005	(-2.69840671370966e+001dB,-1.02017208709173e+002°)
1.27227227227227e+005	(-2.67947648096158e+001dB,-1.02148105953051e+002°)
1.27427427427427e+005	(-2.66039061253542e+001dB,-1.02281812231540e+002°)
1.27627627627627e+005	(-2.64114566990601e+001dB,-1.02418423921344e+002°)
1.27827827827827e+005	(-2.62173810237673e+001dB,-1.02558041975411e+002°)
1.28028028028028e+005	(-2.60216424212264e+001dB,-1.02700772201103e+002°)
1.28228228228228e+005	(-2.58242029896316e+001dB,-1.02846725558964e+002°)
1.28428428428428e+005	(-2.56250235484749e+001dB,-1.02996018483885e+002°)
1.28628628628628e+005	(-2.54240635803427e+001dB,-1.03148773230634e+002°)
1.28828828828828e+005	(-2.52212811694603e+001dB,-1.03305118245934e+002°)
1.29029029029029e+005	(-2.50166329367768e+001dB,-1.03465188569491e+002°)
1.29229229229229e+005	(-2.48100739713655e+001dB,-1.03629126266612e+002°)
1.29429429429429e+005	(-2.46015577579038e+001dB,-1.03797080895351e+002°)
1.29629629629629e+005	(-2.43910360999775e+001dB,-1.03969210011423e+002°)
1.29829829829829e+005	(-2.41784590389389e+001dB,-1.04145679714461e+002°)
1.30030030030030e+005	(-2.39637747680304e+001dB,-1.04326665239620e+002°)
1.30230230230230e+005	(-2.37469295414647e+001dB,-1.04512351598916e+002°)
1.30430430430430e+005	(-2.35278675781364e+001dB,-1.04702934277249e+002°)
1.30630630630630e+005	(-2.33065309596160e+001dB,-1.04898619988545e+002°)
1.30830830830830e+005	(-2.30828595220589e+001dB,-1.05099627498139e+002°)
1.31031031031031e+005	(-2.28567907416388e+001dB,-1.05306188518183e+002°)
1.31231231231231e+005	(-2.26282596130951e+001dB,-1.05518548683698e+002°)
1.31431431431431e+005	(-2.23971985209611e+001dB,-1.05736968617767e+002°)
1.31631631631631e+005	(-2.21635371030198e+001dB,-1.05961725095405e+002°)
1.31831831831831e+005	(-2.19272021055148e+001dB,-1.06193112316806e+002°)
1.32032032032032e+005	(-2.16881172296261e+001dB,-1.06431443301993e+002°)
1.32232232232232e+005	(-2.14462029687069e+001dB,-1.06677051420384e+002°)
1.32432432432432e+005	(-2.12013764357686e+001dB,-1.06930292070544e+002°)
1.32632632632632e+005	(-2.09535511806961e+001dB,-1.07191544527308e+002°)
1.32832832832832e+005	(-2.07026369966841e+001dB,-1.07461213975740e+002°)
1.33033033033033e+005	(-2.04485397154001e+001dB,-1.07739733753935e+002°)
1.33233233233233e+005	(-2.01911609904129e+001dB,-1.08027567829631e+002°)
1.33433433433433e+005	(-1.99303980684797e+001dB,-1.08325213538964e+002°)
1.33633633633633e+005	(-1.96661435483621e+001dB,-1.08633204619598e+002°)
1.33833833833833e+005	(-1.93982851269555e+001dB,-1.08952114574920e+002°)
1.34034034034034e+005	(-1.91267053326757e+001dB,-1.09282560411171e+002°)
1.34234234234234e+005	(-1.88512812462577e+001dB,-1.09625206795306e+002°)
1.34434434434434e+005	(-1.85718842094125e+001dB,-1.09980770688282e+002°)
1.34634634634634e+005	(-1.82883795221675e+001dB,-1.10350026516415e+002°)
1.34834834834834e+005	(-1.80006261302185e+001dB,-1.10733811952669e+002°)
1.35035035035035e+005	(-1.77084763042780e+001dB,-1.11133034390395e+002°)
1.35235235235235e+005	(-1.74117753142589e+001dB,-1.11548678204440e+002°)
1.35435435435435e+005	(-1.71103611022407e+001dB,-1.11981812908855e+002°)
1.35635635635635e+005	(-1.68040639595977e+001dB,-1.12433602337103e+002°)
1.35835835835835e+005	(-1.64927062155226e+001dB,-1.12905314989886e+002°)
1.36036036036036e+005	(-1.61761019465619e+001dB,-1.13398335718083e+002°)
1.36236236236236e+005	(-1.58540567198602e+001dB,-1.13914178933994e+002°)
1.36436436436436e+005	(-1.55263673867708e+001dB,-1.14454503573835e+002°)
1.36636636636636e+005	(-1.51928219485964e+001dB,-1.15021130068512e+002°)
1.36836836836836e+005	(-1.48531995228019e+001dB,-1.15616059618600e+002°)
1.37037037037037e+005	(-1.45072704465164e+001dB,-1.16241496113589e+002°)
1.37237237237237e+005	(-1.41547965650703e+001dB,-1.16899871084880e+002°)
1.37437437437437e+005	(-1.37955317674074e+001dB,-1.17593872136564e+002°)
1.37637637637637e+005	(-1.34292228483871e+001dB,-1.18326475356967e+002°)
1.37837837837837e+005	(-1.30556108014494e+001dB,-1.19100982275404e+002°)
1.38038038038037e+005	(-1.26744326753458e+001dB,-1.19921061989335e+002°)
1.38238238238238e+005	(-1.22854241676083e+001dB,-1.20790799141282e+002°)
1.38438438438438e+005	(-1.18883231775417e+001dB,-1.21714748462981e+002°)
1.38638638638638e+005	(-1.14828746058211e+001dB,-1.22697996610978e+002°)
1.38838838838838e+005	(-1.10688367699319e+001dB,-1.23746231969367e+002°)
1.39039039039038e+005	(-1.06459899090196e+001dB,-1.24865822954884e+002°)
1.39239239239239e+005	(-1.02141473830378e+001dB,-1.26063905071517e+002°)
1.39439439439439e+005	(-9.77317033423209e+000dB,-1.27348476443316e+002°)
1.39639639639639e+005	(-9.32298677785002e+000dB,-1.28728500683315e+002°)
1.39839839839839e+005	(-8.86361632438255e+000dB,-1.30214014557938e+002°)
1.40040040040039e+005	(-8.39520200187354e+000dB,-1.31816235732294e+002°)
1.40240240240240e+005	(-7.91805092498979e+000dB,-1.33547662594440e+002°)
1.40440440440440e+005	(-7.43268580500533e+000dB,-1.35422153315490e+002°)
1.40640640640640e+005	(-6.93990942828697e+000dB,-1.37454964374408e+002°)
1.40840840840840e+005	(-6.44088410136295e+000dB,-1.39662719201501e+002°)
1.41041041041040e+005	(-5.93722742046890e+000dB,-1.42063264963310e+002°)
1.41241241241241e+005	(-5.43112418969162e+000dB,-1.44675359951153e+002°)
1.41441441441441e+005	(-4.92545134458522e+000dB,-1.47518116934797e+002°)
1.41641641641641e+005	(-4.42390767637497e+000dB,-1.50610113038025e+002°)
1.41841841841841e+005	(-3.93113238918380e+000dB,-1.53968072085560e+002°)
1.42042042042041e+005	(-3.45278594782811e+000dB,-1.57605044457986e+002°)
1.42242242242242e+005	(-2.99555449160983e+000dB,-1.61528071265377e+002°)
1.42442442442442e+005	(-2.56702896026706e+000dB,-1.65735443826724e+002°)
1.42642642642642e+005	(-2.17540899568783e+000dB,-1.70213863186423e+002°)
1.42842842842842e+005	(-1.82899917408912e+000dB,-1.74936039711951e+002°)
1.43043043043042e+005	(-1.53550885420435e+000dB,-1.79859464448372e+002°)
1.43243243243243e+005	(-1.30123431234266e+000dB,1.75072905762075e+002°)
1.43443443443443e+005	(-1.13027209703854e+000dB,1.69929605648729e+002°)
1.43643643643643e+005	(-1.02394905135979e+000dB,1.64785427548460e+002°)
1.43843843843843e+005	(-9.80624433439782e-001dB,1.59714880506807e+002°)
1.44044044044043e+005	(-9.95921772609330e-001dB,1.54785708310858e+002°)
1.44244244244244e+005	(-1.06332307511834e+000dB,1.50053809837745e+002°)
1.44444444444444e+005	(-1.17496470259037e+000dB,1.45560391647864e+002°)
1.44644644644644e+005	(-1.32245026604862e+000dB,1.41331461219547e+002°)
1.44844844844844e+005	(-1.49753660407938e+000dB,1.37379179937812e+002°)
1.45045045045044e+005	(-1.69262017717464e+000dB,1.33704324377250e+002°)
1.45245245245245e+005	(-1.90101717448398e+000dB,1.30299135066518e+002°)
1.45445445445445e+005	(-2.11707211939906e+000dB,1.27150031768628e+002°)
1.45645645645645e+005	(-2.33614538233462e+000dB,1.24239908568159e+002°)
1.45845845845845e+005	(-2.55452785163426e+000dB,1.21549910540650e+002°)
1.46046046046045e+005	(-2.76932050249781e+000dB,1.19060712312891e+002°)
1.46246246246246e+005	(-2.97830445652229e+000dB,1.16753376335179e+002°)
1.46446446446446e+005	(-3.17981675805641e+000dB,1.14609885194520e+002°)
1.46646646646646e+005	(-3.37263956582761e+000dB,1.12613436436396e+002°)
1.46846846846846e+005	(-3.55590559246171e+000dB,1.10748573140229e+002°)
1.47047047047046e+005	(-3.72901979774759e+000dB,1.09001206415474e+002°)
1.47247247247247e+005	(-3.89159589863351e+000dB,1.07358570632539e+002°)
1.47447447447447e+005	(-4.04340567274356e+000dB,1.05809139823944e+002°)
1.47647647647647e+005	(-4.18433893195789e+000dB,1.04342524348165e+002°)
1.47847847847847e+005	(-4.31437219001871e+000dB,1.02949360168803e+002°)
1.48048048048047e+005	(-4.43354430077111e+000dB,1.01621198402508e+002°)
1.48248248248248e+005	(-4.54193762234372e+000dB,1.00350399603627e+002°)
1.48448448448448e+005	(-4.63966352716228e+000dB,9.91300351497461e+001°)
1.48648648648648e+005	(-4.72685131071981e+000dB,9.79537967399995e+001°)
1.48848848848848e+005	(-4.80363974848293e+000dB,9.68159141762240e+001°)
1.49049049049048e+005	(-4.87017071145502e+000dB,9.57110810950888e+001°)
1.49249249249249e+005	(-4.92658438077717e+000dB,9.46343880390643e+001°)
1.49449449449449e+005	(-4.97301570523631e+000dB,9.35812621151182e+001°)
1.49649649649649e+005	(-5.00959182750042e+000dB,9.25474124385308e+001°)
1.49849849849849e+005	(-5.03643026964837e+000dB,9.15287805596431e+001°)
1.50050050050049e+005	(-5.05363771980599e+000dB,9.05214951005987e+001°)
1.50250250250250e+005	(-5.06130930251140e+000dB,8.95218298724958e+001°)
1.50450450450450e+005	(-5.05952824831943e+000dB,8.85261647916771e+001°)
1.50650650650650e+005	(-5.04836590516143e+000dB,8.75309489617680e+001°)
1.50850850850850e+005	(-5.02788205677155e+000dB,8.65326653325621e+001°)
1.51051051051050e+005	(-4.99812553346093e+000dB,8.55277963867476e+001°)
1.51251251251251e+005	(-4.95913511884121e+000dB,8.45127903406991e+001°)
1.51451451451451e+005	(-4.91094077380542e+000dB,8.34840273770898e+001°)
1.51651651651651e+005	(-4.85356521711087e+000dB,8.24377854567069e+001°)
1.51851851851851e+005	(-4.78702592117978e+000dB,8.13702052873819e+001°)
1.52052052052051e+005	(-4.71133760313420e+000dB,8.02772540633147e+001°)
1.52252252252251e+005	(-4.62651531552470e+000dB,7.91546876338565e+001°)
1.52452452452452e+005	(-4.53257826963036e+000dB,7.79980108246181e+001°)
1.52652652652652e+005	(-4.42955455754675e+000dB,7.68024357261871e+001°)
1.52852852852852e+005	(-4.31748697842947e+000dB,7.55628379011780e+001°)
1.53053053053052e+005	(-4.19644021996168e+000dB,7.42737106585973e+001°)
1.53253253253252e+005	(-4.06650969872460e+000dB,7.29291178321819e+001°)
1.53453453453453e+005	(-3.92783242231302e+000dB,7.15226459121349e+001°)
1.53653653653653e+005	(-3.78060030008512e+000dB,7.00473569641451e+001°)
1.53853853853853e+005	(-3.62507639450030e+000dB,6.84957445855812e+001°)
1.54054054054053e+005	(-3.46161466363331e+000dB,6.68596962701308e+001°)
1.54254254254253e+005	(-3.29068378464199e+000dB,6.51304670655112e+001°)
1.54454454454454e+005	(-3.11289564636657e+000dB,6.32986714070997e+001°)
1.54654654654654e+005	(-2.92903902355332e+000dB,6.13543025765080e+001°)
